(1491763933.076066) can0 0D4#00E080005D000008
(1491763933.077832) can0 1F4#046400013DF70000
(1491763933.079070) can0 2E4#0000000000000000
(1491763933.080230) can0 405#0000800000010007
(1491763933.082217) can0 0D4#00E080005E000043
(1491763933.094155) can0 0D4#00E080005E00008F
(1491763933.102315) can0 0D4#00E080005E0000CB
(1491763933.114495) can0 0D4#00E080005D000008
(1491763933.115786) can0 1F4#046400013DF70040
(1491763933.118418) can0 0A6#00020B000000004F
(1491763933.119866) can0 0C8#000000000000004C
(1491763933.120862) can0 12C#7D7300000000114C
(1491763933.120863) can0 188#0000800100000E45
(1491763933.123375) can0 0D4#00E080005E000043
(1491763933.127725) can0 0A6#00020B000000008B
(1491763933.128987) can0 0C8#0000000000000088
(1491763933.130095) can0 12C#7D73000000001188
(1491763933.131323) can0 188#0000800100000E81
(1491763933.131325) can0 20C#0254000000000041
(1491763933.133817) can0 0D4#00E080005E00008F
(1491763933.138610) can0 0A6#00020B00000000C7
(1491763933.139855) can0 0C8#00000000000000C4
(1491763933.141065) can0 12C#7D730000000011C4
(1491763933.141067) can0 188#0000800100000ECD
(1491763933.143527) can0 0D4#00E080005E0000CB
(1491763933.148532) can0 0A6#00020B0000000003
(1491763933.149779) can0 0C8#0000000000000000
(1491763933.151012) can0 12C#7D73000000001100
(1491763933.151014) can0 188#0000800100000E09
(1491763933.151014) can0 20C#025400000000008D
(1491763933.153469) can0 0D4#00E080005E000007
(1491763933.154674) can0 1F4#066400013DF70080
(1491763933.158438) can0 0A6#00020B000000004F
(1491763933.159565) can0 0C8#000000000000004C
(1491763933.160814) can0 12C#7D7300000000114C
(1491763933.160815) can0 188#0000800100000E45
(1491763933.162930) can0 0D4#00E080005D000044
(1491763933.167761) can0 0A6#00420B370000008D
(1491763933.169077) can0 0C8#0000000000000088
(1491763933.170282) can0 12C#7D73000000001188
(1491763933.171493) can0 188#0000800100000E81
(1491763933.171495) can0 20C#02540000000000C9
(1491763933.173868) can0 0D4#00E080005E00008F
(1491763933.175104) can0 2E4#000000000000004C
(1491763933.178897) can0 0A6#00420B3C000000C4
(1491763933.180053) can0 0C8#00000000000000C4
(1491763933.181262) can0 12C#7D730000000011C4
(1491763933.181264) can0 188#0000800100000ECD
(1491763933.183689) can0 0D4#00E080005E0000CB
(1491763933.188665) can0 0A6#00420B4400000007
(1491763933.189906) can0 0C8#0000000000000000
(1491763933.190829) can0 12C#7D73000000001100
(1491763933.190830) can0 188#0000800100000E09
(1491763933.190830) can0 20C#0254000000000005
(1491763933.193040) can0 0D4#00E080005E000007
(1491763933.194245) can0 1F4#066400013DF700C0
(1491763933.198921) can0 0A6#00420B3F00000049
(1491763933.200142) can0 0C8#000000000000004C
(1491763933.201344) can0 12C#7D7300000000114C
(1491763933.201346) can0 188#0000800100000E45
(1491763933.203875) can0 0D4#00E080005D000044
(1491763933.208825) can0 0A6#00420B370000008D
(1491763933.210080) can0 0C8#0000000000000088
(1491763933.211316) can0 12C#7D73000000001188
(1491763933.211318) can0 188#0000800100000E81
(1491763933.211318) can0 20C#0254000000000041
(1491763933.212556) can0 224#00EF00000000E24F
(1491763933.213758) can0 0D4#00E080005D000080
(1491763933.218607) can0 0A6#00420B35000000CB
(1491763933.219845) can0 0C8#00000000000000C4
(1491763933.221083) can0 12C#7D730000000011C4
(1491763933.221085) can0 188#0000800100000ECD
(1491763933.223521) can0 0D4#00E080005E0000CB
(1491763933.228615) can0 0A6#00420B3500000007
(1491763933.229807) can0 0C8#0000000000000000
(1491763933.231043) can0 12C#7D73000000001100
(1491763933.231045) can0 188#0000800100000E09
(1491763933.231045) can0 20C#025400000000008D
(1491763933.233550) can0 0D4#00E080005D000008
(1491763933.234788) can0 1F4#066400013DF70000
(1491763933.238540) can0 0A6#00420B3400000044
(1491763933.239827) can0 0C8#000000000000004C
(1491763933.240834) can0 12C#7D7300000000114C
(1491763933.240835) can0 188#0000800100000E45
(1491763933.243395) can0 0D4#00E080005E000043
(1491763933.248409) can0 0A6#00420B3100000083
(1491763933.249628) can0 0C8#0000000000000088
(1491763933.250880) can0 12C#7D73000000001188
(1491763933.250882) can0 188#0000800100000E81
(1491763933.250882) can0 20C#02540000000000C9
(1491763933.253239) can0 0D4#00E080005E00008F
(1491763933.257720) can0 0A6#00420B2C000000C5
(1491763933.258916) can0 0C8#00000000000000C4
(1491763933.260156) can0 12C#7D730000000011C4
(1491763933.261362) can0 188#0000800100000ECD
(1491763933.263767) can0 0D4#00E080005E0000CB
(1491763933.268702) can0 0A6#00420B2800000005
(1491763933.269940) can0 0C8#0000000000000000
(1491763933.271179) can0 12C#7D73000000001100
(1491763933.271181) can0 188#0000800100000E09
(1491763933.271181) can0 20C#0254000000000005
(1491763933.273657) can0 0D4#00E080005E000007
(1491763933.274971) can0 1F4#066400013DF70040
(1491763933.276125) can0 2E4#0000000000000088
(1491763933.278662) can0 0A6#00420B2500000044
(1491763933.279904) can0 0C8#000000000000004C
(1491763933.281142) can0 12C#7D7300000000114C
(1491763933.281144) can0 188#0000800100000E45
(1491763933.283610) can0 0D4#00E080005E000043
(1491763933.288471) can0 0A6#00420B2500000080
(1491763933.289721) can0 0C8#0000000000000088
(1491763933.290939) can0 12C#7D73000000001188
(1491763933.290941) can0 188#0000800100000E81
(1491763933.290941) can0 20C#0254000000000041
(1491763933.293411) can0 0D4#00E080005E00008F
(1491763933.298489) can0 0A6#00420B25000000CC
(1491763933.299685) can0 0C8#00000000000000C4
(1491763933.300924) can0 12C#7D730000000011C4
(1491763933.300925) can0 188#0000800100000ECD
(1491763933.303426) can0 0D4#00E080005D0000CC
(1491763933.308468) can0 0A6#00420B2500000008
(1491763933.309837) can0 0C8#0000000000000000
(1491763933.311081) can0 12C#7D73000000001100
(1491763933.311083) can0 188#0000800100000E09
(1491763933.311083) can0 20C#025400000000008D
(1491763933.312289) can0 224#00EF00000000E28B
(1491763933.313560) can0 0D4#00E080005D000008
(1491763933.314738) can0 1F4#066400013DF70080
(1491763933.318428) can0 0A6#00420B2500000044
(1491763933.319726) can0 0C8#000000000000004C
(1491763933.320963) can0 12C#7D7300000000114C
(1491763933.320965) can0 188#0000800100000E45
(1491763933.323238) can0 0D4#00E080005E000043
(1491763933.327744) can0 0A6#00420B2500000080
(1491763933.328931) can0 0C8#0000000000000088
(1491763933.330056) can0 12C#7D73000000001188
(1491763933.331280) can0 188#0000800100000E81
(1491763933.331282) can0 20C#02540000000000C9
(1491763933.333610) can0 0D4#00E080005E00008F
(1491763933.338391) can0 0A6#00420B00000000C3
(1491763933.339625) can0 0C8#00000000000000C4
(1491763933.340862) can0 12C#7D730000000011C4
(1491763933.340864) can0 188#0000800100000ECD
(1491763933.343348) can0 0D4#00E080005D0000CC
(1491763933.347778) can0 0A6#00420B000000000F
(1491763933.348988) can0 0C8#0000000000000000
(1491763933.350241) can0 12C#7D73000000001100
(1491763933.351494) can0 188#0000800100000E09
(1491763933.351496) can0 20C#0254000000000005
(1491763933.353936) can0 0D4#00E080005E000007
(1491763933.355188) can0 1F4#066400013DF700C0
(1491763933.358878) can0 0A6#00420B010000004A
(1491763933.360117) can0 0C8#000000000000004C
(1491763933.361323) can0 12C#7D7300000000114C
(1491763933.361324) can0 188#0000800100000E45
(1491763933.363791) can0 0D4#00E080005D000044
(1491763933.368612) can0 0A6#00420B0600000081
(1491763933.369823) can0 0C8#0000000000000088
(1491763933.371081) can0 12C#7D73000000001188
(1491763933.371083) can0 188#0000800100000E81
(1491763933.371083) can0 20C#0254000000000041
(1491763933.373542) can0 0D4#00E080005D000080
(1491763933.374779) can0 2E4#00000000000000C4
(1491763933.376016) can0 405#0100800100010041
(1491763933.378531) can0 0A6#00420B0A000000C9
(1491763933.379692) can0 0C8#00000000000000C4
(1491763933.380924) can0 12C#7D730000000011C4
(1491763933.380925) can0 188#0000800100000ECD
(1491763933.383394) can0 0D4#00E080005D0000CC
(1491763933.388368) can0 0A6#00420B0A00000005
(1491763933.389567) can0 0C8#0000000000000000
(1491763933.390825) can0 12C#7D73000000001100
(1491763933.390827) can0 188#0000800100000E09
(1491763933.390827) can0 20C#025400000000008D
(1491763933.392930) can0 0D4#00E0804A5D00000A
(1491763933.394257) can0 1F4#066400013DF70000
(1491763933.397724) can0 0A6#00420B0B00000040
(1491763933.399006) can0 0C8#000000000000004C
(1491763933.400271) can0 12C#7D7300000000114C
(1491763933.401479) can0 188#0000800100000E45
(1491763933.403954) can0 0D4#00E0804A5D000046
(1491763933.409019) can0 0A6#00420B0C0000008B
(1491763933.410247) can0 0C8#0000000000000088
(1491763933.411483) can0 12C#7D73000000001188
(1491763933.411485) can0 188#0000800100000E81
(1491763933.411485) can0 20C#02540000000000C9
(1491763933.412706) can0 224#00EF00000000E2C7
(1491763933.413946) can0 0D4#00E0804A5E000081
(1491763933.418950) can0 0A6#00420B0C000000C7
(1491763933.420137) can0 0C8#00000000000000C4
(1491763933.421377) can0 12C#7D730000000011C4
(1491763933.421379) can0 188#0000800100000ECD
(1491763933.423847) can0 0D4#00E0804A5D0000CE
(1491763933.428591) can0 0A6#00420B0C00000003
(1491763933.429849) can0 0C8#0000000000000000
(1491763933.431083) can0 12C#7D73000000001100
(1491763933.431084) can0 188#0000800100000E09
(1491763933.431085) can0 20C#0254000000000005
(1491763933.433592) can0 0D4#00E0804A5D00000A
(1491763933.434845) can0 1F4#066400013DF70040
(1491763933.438565) can0 0A6#00420B0C0000004F
(1491763933.439787) can0 0C8#000000000000004C
(1491763933.441025) can0 12C#7D7300000000114C
(1491763933.441026) can0 188#0000800100000E45
(1491763933.443485) can0 0D4#00E0804A5D000046
(1491763933.448448) can0 0A6#00420B0C0000008B
(1491763933.449542) can0 0C8#0000000000000088
(1491763933.450797) can0 12C#7D73000000001188
(1491763933.450798) can0 188#0000800100000E81
(1491763933.450799) can0 20C#0254000000000041
(1491763933.453140) can0 0D4#00E0804A5D000082
(1491763933.457750) can0 0A6#00420B0C000000C7
(1491763933.458966) can0 0C8#00000000000000C4
(1491763933.460189) can0 12C#7D730000000011C4
(1491763933.461350) can0 188#0000800100000ECD
(1491763933.463866) can0 0D4#00E0804A5D0000CE
(1491763933.468738) can0 0A6#00420B0C00000003
(1491763933.469942) can0 0C8#0000000000000000
(1491763933.471182) can0 12C#7D73000000001100
(1491763933.471183) can0 188#0000800100000E09
(1491763933.471183) can0 20C#025400000000008D
(1491763933.473656) can0 0D4#00E0804A5E000009
(1491763933.474868) can0 1F4#066400013DF70080
(1491763933.476105) can0 2E4#0000000000000000
(1491763933.478616) can0 0A6#00420B0C0000004F
(1491763933.479857) can0 0C8#000000000000004C
(1491763933.481095) can0 12C#7D7300000000114C
(1491763933.481096) can0 188#0000800100000E45
(1491763933.483618) can0 0D4#00E0804A5E000045
(1491763933.488629) can0 0A6#00420B0C0000008B
(1491763933.489910) can0 0C8#0000000000000088
(1491763933.491152) can0 12C#7D73000000001188
(1491763933.491153) can0 188#0000800100000E81
(1491763933.491153) can0 20C#02540000000000C9
(1491763933.493644) can0 0D4#00E0804A5D000082
(1491763933.498474) can0 0A6#00420B0B000000C8
(1491763933.499710) can0 0C8#00000000000000C4
(1491763933.500967) can0 12C#7D730000000011C4
(1491763933.500969) can0 188#0000800100000ECD
(1491763933.503085) can0 0D4#00E0804A5E0000CD
(1491763933.507642) can0 0A6#00420B0B00000004
(1491763933.508908) can0 0C8#0000000000000000
(1491763933.510276) can0 12C#7D73000000001100
(1491763933.511370) can0 188#0000800100000E09
(1491763933.511372) can0 20C#0254000000000005
(1491763933.511372) can0 224#00EF00000000E203
(1491763933.513711) can0 0D4#00E0804A5E000009
(1491763933.514857) can0 1F4#066400013DF700C0
(1491763933.518322) can0 0A6#00420B0B00000040
(1491763933.519465) can0 0C8#000000000000004C
(1491763933.520588) can0 12C#7D7300000000114C
(1491763933.520589) can0 188#0000800100000E45
(1491763933.522703) can0 0D4#00E0804A5E000045
(1491763933.529586) can0 0A6#00420B0B0000008C
(1491763933.530691) can0 0C8#0000000000000088
(1491763933.531836) can0 12C#7D73000000001188
(1491763933.531837) can0 188#0000800100000E81
(1491763933.531837) can0 20C#0254000000000041
(1491763933.534100) can0 0D4#00E0804A5D000082
(1491763933.537469) can0 064#FFC000F00E0FFFC0
(1491763933.538658) can0 0A6#00420B0B000000C8
(1491763933.539793) can0 090#03E00000000D00C6
(1491763933.540939) can0 0C8#00000000000000C4
(1491763933.540940) can0 12C#7D730000000011C4
(1491763933.540940) can0 188#0000800100000ECD
(1491763933.542020) can0 1C0#0000000000000000
(1491763933.543013) can0 0D4#00E0804A5D0000CE
(1491763933.550109) can0 0A6#00020B0B00000008
(1491763933.551295) can0 0C8#0000000000000000
(1491763933.552570) can0 12C#7D73000000001100
(1491763933.552571) can0 188#0000800100000E09
(1491763933.552572) can0 20C#025400000000008D
(1491763933.553598) can0 0D4#00E0804A5E000009
(1491763933.554726) can0 1F4#066400013DF70000
(1491763933.558183) can0 064#FFC000F00E0FFF0C
(1491763933.559319) can0 0A6#00020B0B00000044
(1491763933.560380) can0 090#03E20000000D0000
(1491763933.560381) can0 0C8#000000000000004C
(1491763933.560381) can0 12C#7D7300000000114C
(1491763933.561520) can0 188#0000800100000E45
(1491763933.561520) can0 1C0#0000000000000000
(1491763933.563835) can0 0D4#00E0804A5D000046
(1491763933.568420) can0 0A6#00020B0B00000080
(1491763933.569593) can0 0C8#0000000000000088
(1491763933.570736) can0 12C#7D73000000001188
(1491763933.570736) can0 188#0000800100000E81
(1491763933.570737) can0 20C#02540000000000C9
(1491763933.574046) can0 0D4#00E0804A5D000082
(1491763933.575175) can0 2E4#000000000000004C
(1491763933.577378) can0 064#FFC000F00E0FFF48
(1491763933.578592) can0 0A6#00020B0B000000CC
(1491763933.579788) can0 090#03E20000000D004C
(1491763933.580932) can0 0C8#00000000000000C4
(1491763933.580933) can0 12C#7D730000000011C4
(1491763933.580933) can0 188#0000800100000ECD
(1491763933.582095) can0 1C0#0000000000000000
(1491763933.582945) can0 0D4#00E0804A5E0000CD
(1491763933.589845) can0 0A6#00020B0B00000008
(1491763933.590991) can0 0C8#0000000000000000
(1491763933.592135) can0 12C#7D73000000001100
(1491763933.592136) can0 188#0000800100000E09
(1491763933.592139) can0 20C#0254000000000005
(1491763933.593273) can0 0D4#00E0804A5E000009
(1491763933.594628) can0 1F4#066400013DF70040
(1491763933.598217) can0 064#FFC000F00E0FFF84
(1491763933.599350) can0 0A6#00020B0B00000044
(1491763933.600740) can0 090#03E20000000D089F
(1491763933.600742) can0 0C8#000000000000004C
(1491763933.600743) can0 12C#7D7300000000114C
(1491763933.601549) can0 188#0000800100000E45
(1491763933.601550) can0 1C0#0000000000000000
(1491763933.603727) can0 0D4#00E0804A5E000045
(1491763933.608056) can0 0A6#00020B0B00000080
(1491763933.609170) can0 0C8#0000000000000088
(1491763933.610334) can0 12C#7D73000000001188
(1491763933.610335) can0 188#0000800100000E81
(1491763933.611498) can0 20C#0254000000000041
(1491763933.611499) can0 224#00EF00000000E24F
(1491763933.613844) can0 0D4#00E0804A5D000082
(1491763933.618600) can0 064#FFC000F00E0FFFC0
(1491763933.619796) can0 0A6#00020B0B000000CC
(1491763933.620992) can0 090#03E30000000D00C3
(1491763933.620993) can0 0C8#00000000000000C4
(1491763933.620993) can0 12C#7D730000000011C4
(1491763933.622214) can0 188#0000800100000ECD
(1491763933.622215) can0 1C0#0000000000000000
(1491763933.622959) can0 0D4#00E0804A5E0000CD
(1491763933.630138) can0 0A6#00020B0B00000008
(1491763933.631141) can0 0C8#0000000000000000
(1491763933.632424) can0 12C#7D73000000001100
(1491763933.632426) can0 188#0000800100000E09
(1491763933.632426) can0 20C#025400000000008D
(1491763933.633208) can0 0D4#00E0804A5D00000A
(1491763933.634502) can0 1F4#066400013DF70080
(1491763933.638184) can0 064#FFC000F00E0FFF0C
(1491763933.639352) can0 0A6#00020B0B00000044
(1491763933.640609) can0 090#03E30000000D000F
(1491763933.640611) can0 0C8#000000000000004C
(1491763933.640612) can0 12C#7D7300000000114C
(1491763933.641858) can0 188#0000800100000E45
(1491763933.641860) can0 1C0#0000000000000000
(1491763933.644348) can0 0D4#00E0804A5D000046
(1491763933.647828) can0 0A6#00020B0B00000080
(1491763933.649165) can0 0C8#0000000000000088
(1491763933.650354) can0 12C#7D73000000001188
(1491763933.651609) can0 188#0000800100000E81
(1491763933.651611) can0 20C#02540000000000C9
(1491763933.654089) can0 0D4#00E0804A5E000081
(1491763933.657586) can0 064#FFC000F00E0FFF48
(1491763933.658777) can0 0A6#00020B0B000000CC
(1491763933.660053) can0 090#03E30000000D004B
(1491763933.661325) can0 0C8#00000000000000C4
(1491763933.661327) can0 12C#7D730000008711C5
(1491763933.661328) can0 188#0000800100000ECD
(1491763933.662546) can0 1C0#0000000000000000
(1491763933.663784) can0 0D4#00E0804A5E0000CD
(1491763933.668792) can0 0A6#00020B0B00000008
(1491763933.669968) can0 0C8#0000000000000000
(1491763933.671213) can0 12C#7D73000000871101
(1491763933.671215) can0 188#0000800100000E09
(1491763933.671216) can0 20C#0254000000870006
(1491763933.673620) can0 0D4#00E0804A5D00000A
(1491763933.674883) can0 1F4#066400013DF700C0
(1491763933.676110) can0 2E4#0000000000000088
(1491763933.676112) can0 405#010D90010001008F
(1491763933.678643) can0 064#FFC000F00E0FFF84
(1491763933.679876) can0 0A6#00020B0B00000044
(1491763933.681124) can0 090#03E20000000D0088
(1491763933.681126) can0 0C8#000000000000004C
(1491763933.681127) can0 12C#7D7300000087114D
(1491763933.682364) can0 188#0000800100000E45
(1491763933.682366) can0 1C0#0000000000000000
(1491763933.683586) can0 0D4#00E0804A5D000046
(1491763933.688618) can0 0A6#00020B0B00000080
(1491763933.689897) can0 0C8#0000000000000088
(1491763933.691113) can0 12C#7D73000000871189
(1491763933.691115) can0 188#0000800100000E81
(1491763933.691115) can0 20C#0254000000870042
(1491763933.694743) can0 0D4#00E0804A5E000081
(1491763933.698533) can0 064#FFC000F00E0FFFC0
(1491763933.699749) can0 0A6#00020B0B000000CC
(1491763933.701000) can0 090#03E30000000D00C3
(1491763933.701002) can0 0C8#00000000000000C4
(1491763933.701003) can0 12C#7D730000008711C5
(1491763933.702225) can0 188#0000800100000ECD
(1491763933.702227) can0 1C0#0000000000000000
(1491763933.703137) can0 0D4#00E0804A5E0000CD
(1491763933.707803) can0 0A6#00020B0B00000008
(1491763933.709055) can0 0C8#0000000000000000
(1491763933.710307) can0 12C#7D73000000871101
(1491763933.711525) can0 188#0000800100000E09
(1491763933.711527) can0 20C#025400000087008E
(1491763933.711528) can0 224#00EF00000000E28B
(1491763933.713997) can0 0D4#00E0804A5E000009
(1491763933.715207) can0 1F4#066400013DF70000
(1491763933.718785) can0 064#FFC000F00E0FFF0C
(1491763933.720040) can0 0A6#00020B0B00000044
(1491763933.721291) can0 090#03E30000000D000F
(1491763933.721293) can0 0C8#000000000000004C
(1491763933.721294) can0 12C#7D7300000087114D
(1491763933.722542) can0 188#0000800100000E45
(1491763933.722544) can0 1C0#0000000000000000
(1491763933.723810) can0 0D4#00E0804A5D000046
(1491763933.728741) can0 0A6#00020B0B00000080
(1491763933.729981) can0 0C8#0000000000000088
(1491763933.731216) can0 12C#7D73000000871189
(1491763933.731217) can0 188#0000800100000E81
(1491763933.731218) can0 20C#02540000008700CA
(1491763933.733198) can0 0D4#00E0804A5E000081
(1491763933.737448) can0 064#FFC000F00E0FFF48
(1491763933.738699) can0 090#03E30000000D004B
(1491763933.739870) can0 0A6#00020B0B000000CC
(1491763933.741108) can0 0C8#00000000000000C4
(1491763933.741110) can0 12C#7D730000008711C5
(1491763933.741111) can0 188#0000000100000EC5
(1491763933.742308) can0 1C0#0000000000000000
(1491763933.743327) can0 0D4#00E0804A5D0000CE
(1491763933.748403) can0 0A6#00020B0B00000008
(1491763933.749545) can0 0C8#0000000000000000
(1491763933.750814) can0 12C#7D73000000871101
(1491763933.750816) can0 188#0000000100000E01
(1491763933.750816) can0 20C#0254000000870006
(1491763933.754443) can0 0D4#00E0804A5E000009
(1491763933.755699) can0 1F4#066400013DF70040
(1491763933.758182) can0 064#FFC000F00E0FFF84
(1491763933.759388) can0 090#03E30000000D0087
(1491763933.760641) can0 0A6#00020B0B00000044
(1491763933.760643) can0 0C8#000000000000004C
(1491763933.760644) can0 12C#7D73000000C1114F
(1491763933.761877) can0 188#0000000100000E4D
(1491763933.761878) can0 1C0#0000000000000000
(1491763933.764277) can0 0D4#00E0804A5D000046
(1491763933.767694) can0 0A6#00020B0B00000080
(1491763933.768989) can0 0C8#0000000000000088
(1491763933.769906) can0 12C#7D73000000C1118B
(1491763933.771160) can0 188#0000000100000E89
(1491763933.771162) can0 20C#0254000000C10044
(1491763933.773143) can0 0D4#00E0804A5E000081
(1491763933.774373) can0 2E4#00000000000000C4
(1491763933.777625) can0 064#FFC000F00E0FFFC0
(1491763933.778847) can0 0A6#00020B0B000000CC
(1491763933.780079) can0 090#03E30000000D00C3
(1491763933.781321) can0 0C8#00000000000000C4
(1491763933.781323) can0 12C#7D73000000C111C7
(1491763933.781324) can0 188#0000000100000EC5
(1491763933.782577) can0 1C0#0000000000000000
(1491763933.783811) can0 0D4#00E0804A5D0000CE
(1491763933.788647) can0 0A6#00020B0B00000008
(1491763933.789864) can0 0C8#0000000000000000
(1491763933.791115) can0 12C#7D73000000C11103
(1491763933.791117) can0 188#0000000100000E01
(1491763933.791117) can0 20C#0254000000C10080
(1491763933.793607) can0 0D4#00E0804A5E000009
(1491763933.794839) can0 1F4#066400013DF70080
(1491763933.798591) can0 064#FFC000F00E0FFF0C
(1491763933.799823) can0 090#03E10000000D0001
(1491763933.801063) can0 0A6#00020B0B00000044
(1491763933.801064) can0 0C8#000000000000004C
(1491763933.801065) can0 12C#7D73000000C1114F
(1491763933.802296) can0 188#0000000100000E4D
(1491763933.802297) can0 1C0#0000000000000000
(1491763933.803372) can0 0D4#00E0804A5D000046
(1491763933.807800) can0 0A6#00020B0B00000080
(1491763933.809070) can0 0C8#0000000000000088
(1491763933.810284) can0 12C#7D73000000C1118B
(1491763933.811538) can0 188#0000000100000E89
(1491763933.811540) can0 20C#0254000000C100CC
(1491763933.811540) can0 224#00EF00000000E2C7
(1491763933.813972) can0 0D4#00E0804A5E000081
(1491763933.818694) can0 064#FFC000F00E0FFF48
(1491763933.819947) can0 090#03E20000000D004C
(1491763933.821055) can0 0A6#00020B0B000000CC
(1491763933.821056) can0 0C8#00000000000000C4
(1491763933.821057) can0 12C#7D73000000C111C7
(1491763933.822184) can0 188#0000000100000EC5
(1491763933.822185) can0 1C0#0000000000000000
(1491763933.823093) can0 0D4#00E0804A5D0000CE
(1491763933.827793) can0 0A6#00020B0B00000008
(1491763933.829135) can0 0C8#0000000000000000
(1491763933.830338) can0 12C#7D73000000C11103
(1491763933.831576) can0 188#0000000100000E01
(1491763933.831577) can0 20C#0254000000C10008
(1491763933.833916) can0 0D4#00E0804A5D00000A
(1491763933.835162) can0 1F4#066400013DF700C0
(1491763933.838697) can0 064#FFC000F00E0FFF84
(1491763933.839913) can0 090#03E20000000D0088
(1491763933.841151) can0 0A6#00020B0B00000044
(1491763933.841152) can0 0C8#000000000000004C
(1491763933.841153) can0 12C#7D73000000C1114F
(1491763933.842385) can0 188#0000000100000E4D
(1491763933.842387) can0 1C0#0000000000000000
(1491763933.843217) can0 0D4#00E0804A5D000046
(1491763933.847799) can0 0A6#00020B0B00000080
(1491763933.849086) can0 0C8#0000000000000088
(1491763933.850339) can0 12C#7D73000000C1118B
(1491763933.851599) can0 188#0000000100000E89
(1491763933.851600) can0 20C#0254000000C10044
(1491763933.854052) can0 0D4#00E0804A5D000082
(1491763933.857591) can0 064#FFC000F00E0FFFC0
(1491763933.858930) can0 090#03E20000000D00C4
(1491763933.860084) can0 0A6#00020B0B000000CC
(1491763933.861321) can0 0C8#00000000000000C4
(1491763933.861322) can0 12C#7D73000000C911CF
(1491763933.861323) can0 188#0000000100000EC5
(1491763933.862552) can0 1C0#0000000000000000
(1491763933.863791) can0 0D4#00E0804A5D0000CE
(1491763933.868691) can0 0A6#00020B0B00000008
(1491763933.869931) can0 0C8#0000000000000000
(1491763933.871180) can0 12C#7D73000000C9110B
(1491763933.871181) can0 188#0000000100000E01
(1491763933.871182) can0 20C#0254000000C90088
(1491763933.873684) can0 0D4#00E0804A5E000009
(1491763933.874922) can0 1F4#066400013DF70000
(1491763933.876175) can0 2E4#0000000000000000
(1491763933.878670) can0 064#FFC000F00E0FFF0C
(1491763933.879905) can0 090#03E20000000D0000
(1491763933.881171) can0 0A6#00020B0B00000044
(1491763933.881173) can0 0C8#000000000000004C
(1491763933.881173) can0 12C#7D73000000C91147
(1491763933.882414) can0 188#0000000100000E4D
(1491763933.882417) can0 1C0#0000000000000000
(1491763933.883663) can0 0D4#00E0804A5E000045
(1491763933.888661) can0 0A6#00020B0B00000080
(1491763933.889940) can0 0C8#0000000000000088
(1491763933.890950) can0 12C#7D73000000C91183
(1491763933.890950) can0 188#0000000100000E89
(1491763933.890951) can0 20C#0254000000C900C4
(1491763933.893140) can0 0D4#00E0804A5D000082
(1491763933.898157) can0 064#FFC000F00E0FFF48
(1491763933.899415) can0 090#03E20000000C004D
(1491763933.900667) can0 0A6#00020B0B000000CC
(1491763933.900669) can0 0C8#00000000000000C4
(1491763933.900669) can0 12C#7D73000000C911CF
(1491763933.901715) can0 188#0000000100000EC5
(1491763933.901716) can0 1C0#0000000000000000
(1491763933.904346) can0 0D4#00E0804A5D0000CE
(1491763933.907828) can0 0A6#00020B0B00000008
(1491763933.909041) can0 0C8#0000000000000000
(1491763933.910301) can0 12C#7D73000000C9110B
(1491763933.911511) can0 188#0000000100000E01
(1491763933.911513) can0 20C#0254000000C90000
(1491763933.911514) can0 224#00EF00000000E203
(1491763933.913816) can0 0D4#00E0804A5E000009
(1491763933.915060) can0 1F4#066400013DF70040
(1491763933.918735) can0 064#FFC000F00E0FFF84
(1491763933.919979) can0 090#03E20000000C0089
(1491763933.921233) can0 0A6#00020B0B00000044
(1491763933.921234) can0 0C8#000000000000004C
(1491763933.921235) can0 12C#7D73000000C91147
(1491763933.922431) can0 188#0000000100000E4D
(1491763933.922433) can0 1C0#0000000000000000
(1491763933.923147) can0 0D4#00E0804A5D000046
(1491763933.927797) can0 0A6#00020B0B00000080
(1491763933.929089) can0 0C8#0000000000000088
(1491763933.930327) can0 12C#7D73000000C91183
(1491763933.931564) can0 188#0000000100000E89
(1491763933.931566) can0 20C#0254000000C9004C
(1491763933.934036) can0 0D4#00E0804A5D000082
(1491763933.937542) can0 064#FFC000F00E0FFFC0
(1491763933.938848) can0 0A6#00020B0B000000CC
(1491763933.940082) can0 090#03E20000000C00C5
(1491763933.941319) can0 0C8#00000000000000C4
(1491763933.941320) can0 12C#7D73000000C911CF
(1491763933.941321) can0 188#0000000100000EC5
(1491763933.942540) can0 1C0#0000000000000000
(1491763933.943315) can0 0D4#00E0804A5E0000CD
(1491763933.947812) can0 0A6#00020B0B00000008
(1491763933.948928) can0 0C8#0000000000000000
(1491763933.950224) can0 12C#7D73000000C9110B
(1491763933.951463) can0 188#0000000100000E01
(1491763933.951465) can0 20C#0254000000C90088
(1491763933.953880) can0 0D4#00E0804A5D00000A
(1491763933.955103) can0 1F4#066400013DF70080
(1491763933.958789) can0 064#FFC000F00E0FFF0C
(1491763933.959760) can0 090#03E20000000C0001
(1491763933.960999) can0 0A6#00020B0B00000044
(1491763933.961000) can0 0C8#000000000000004C
(1491763933.961031) can0 12C#7D73000000CD1143
(1491763933.962236) can0 188#0000000100000E4D
(1491763933.962238) can0 1C0#0000000000000000
(1491763933.963218) can0 0D4#00E0804A5D000046
(1491763933.967833) can0 0A6#00020B0B00000080
(1491763933.969096) can0 0C8#0000000000000088
(1491763933.970313) can0 12C#7D73000000CD118F
(1491763933.971548) can0 188#0000000100000E89
(1491763933.971549) can0 20C#0254000000CD00C0
(1491763933.974040) can0 0D4#00E0804A5D000082
(1491763933.975286) can0 2E4#000000000000004C
(1491763933.976531) can0 405#010D9001000100CB
(1491763933.977586) can0 064#FFC000F00E0FFF48
(1491763933.978879) can0 090#03E20000000C004D
(1491763933.980079) can0 0A6#00020B0B000000CC
(1491763933.981332) can0 0C8#00000000000000C4
(1491763933.981336) can0 12C#7D73000000CD11CB
(1491763933.981337) can0 188#0000000100000EC5
(1491763933.982584) can0 1C0#0000000000000000
(1491763933.983678) can0 0D4#00E0804A5E0000CD
(1491763933.988665) can0 0A6#00020B0B00000008
(1491763933.989904) can0 0C8#0000000000000000
(1491763933.991150) can0 12C#7D73000000CD1107
(1491763933.991152) can0 188#0000000100000E01
(1491763933.991153) can0 20C#0254000000CD000C
(1491763933.993117) can0 0D4#00E0804A5D00000A
(1491763933.994354) can0 1F4#066400013DF700C0
(1491763933.997610) can0 064#FFC000F00E0FFF84
(1491763933.998889) can0 090#03E20000000C0089
(1491763933.999853) can0 0A6#00020B0B00000044
(1491763934.001069) can0 0C8#000000000000004C
(1491763934.001071) can0 12C#7D73000000CD1143
(1491763934.001072) can0 188#0000000100000E4D
(1491763934.002305) can0 1C0#0000000000000000
(1491763934.003108) can0 0D4#00E0804A5D000046
(1491763934.010170) can0 0A6#00020B0B00000080
(1491763934.011376) can0 0C8#0000000000000088
(1491763934.012614) can0 12C#7D73000001601181
(1491763934.012615) can0 188#0000000100000E89
(1491763934.012616) can0 20C#025400000160004A
(1491763934.013860) can0 224#00EF00020000E24D
(1491763934.015090) can0 0D4#00E0804A5D000082
(1491763934.018704) can0 064#FFC000F00E0FFFC0
(1491763934.019954) can0 0A6#00020B0B000000CC
(1491763934.021208) can0 090#03E20000000C00C5
(1491763934.021209) can0 0C8#00000000000000C4
(1491763934.021210) can0 12C#7D730000016011CD
(1491763934.022460) can0 188#0000000100000EC5
(1491763934.022462) can0 1C0#0000000000000000
(1491763934.023698) can0 0D4#00E0804A5D0000CE
(1491763934.028630) can0 0A6#00020B0B00000008
(1491763934.029816) can0 0C8#0000000000000000
(1491763934.031042) can0 12C#7D73000001601109
(1491763934.031043) can0 188#0000000100000E01
(1491763934.031044) can0 20C#0254000001600086
(1491763934.033283) can0 0D4#00E0804A5D00000A
(1491763934.034637) can0 1F4#066400013DF70000
(1491763934.038138) can0 064#FFC000F00E0FFF0C
(1491763934.039297) can0 090#03E20000000C0001
(1491763934.040545) can0 0A6#00020B0B00000044
(1491763934.040547) can0 0C8#000000000000004C
(1491763934.040548) can0 12C#7D73000001601145
(1491763934.041623) can0 188#0000000100000E4D
(1491763934.041625) can0 1C0#0000000000000000
(1491763934.044117) can0 0D4#00E0804A5D000046
(1491763934.049050) can0 0A6#00020B0B00000080
(1491763934.050284) can0 0C8#0000000000000088
(1491763934.051496) can0 12C#7D730000020C118A
(1491763934.051498) can0 188#0000000100000E89
(1491763934.051499) can0 20C#02540000020C00CB
(1491763934.054013) can0 0D4#00E0804A5E000081
(1491763934.058856) can0 064#FFC000F00E0FFF48
(1491763934.060063) can0 090#03E20000000C004D
(1491763934.061303) can0 0A6#00020B0B000000CC
(1491763934.061304) can0 0C8#00000000000000C4
(1491763934.061305) can0 12C#7D730000020C11C6
(1491763934.062542) can0 188#0000000100000EC5
(1491763934.062543) can0 1C0#0000000000000000
(1491763934.063307) can0 0D4#00E0804A5E0000CD
(1491763934.067813) can0 0A6#00000B0B0000000A
(1491763934.069034) can0 0C8#0000000000000000
(1491763934.070283) can0 12C#7D730000020C1102
(1491763934.071510) can0 188#0000000100000E01
(1491763934.071511) can0 20C#02540000020C0007
(1491763934.073982) can0 0D4#00E0804A5D00000A
(1491763934.075218) can0 1F4#066400013DF70040
(1491763934.076298) can0 2E4#0000000000000088
(1491763934.078780) can0 064#FFC000F00E0FFF84
(1491763934.079968) can0 090#03E20000000C0089
(1491763934.081211) can0 0A6#00000B0B00000046
(1491763934.081212) can0 0C8#000000000000004C
(1491763934.081213) can0 12C#7D730000027A1149
(1491763934.082453) can0 188#0000000100000E4D
(1491763934.082455) can0 1C0#0000000000000000
(1491763934.083644) can0 0D4#00E0804A5D000046
(1491763934.088716) can0 0A6#00000B0B00000082
(1491763934.089938) can0 0C8#0000000000000088
(1491763934.091175) can0 12C#7D730000027A1185
(1491763934.091177) can0 188#0000000100000E89
(1491763934.091178) can0 20C#02540000027A004E
(1491763934.093651) can0 0D4#00E0804A5D000082
(1491763934.098634) can0 064#FFC000F00E0FFFC0
(1491763934.099778) can0 0A6#00000B0B000000CE
(1491763934.101040) can0 090#03E20000000C00C5
(1491763934.101041) can0 0C8#000000D9000000CE
(1491763934.101042) can0 12C#7D730000027A11C1
(1491763934.102271) can0 188#0000000100000EC5
(1491763934.102273) can0 1C0#0000000000000000
(1491763934.103127) can0 0D4#00E0804A5D0000CE
(1491763934.110211) can0 0A6#00000C0B00000009
(1491763934.111279) can0 0C8#000001010000000E
(1491763934.112569) can0 12C#7D73000002EC1104
(1491763934.112570) can0 188#0000000100000E01
(1491763934.112571) can0 20C#0254000002EC0081
(1491763934.113673) can0 224#00EF00020000E08B
(1491763934.114835) can0 0D4#00E0804A5D00000A
(1491763934.115953) can0 1F4#066400013DF70080
(1491763934.118303) can0 064#FFC000F00E01550E
(1491763934.119388) can0 0A6#00000C0B00000045
(1491763934.120522) can0 090#03E20000000C0001
(1491763934.120522) can0 0C8#0000014E00000049
(1491763934.120523) can0 12C#7D73000002EC1140
(1491763934.121663) can0 188#0000000100000E4D
(1491763934.121664) can0 1C0#0000000000000000
(1491763934.123975) can0 0D4#00E0804A5D000046
(1491763934.128569) can0 0A6#00000C0B00000081
(1491763934.129695) can0 0C8#000001710000008F
(1491763934.130841) can0 12C#7D730000033D1185
(1491763934.130842) can0 188#0000000100000E89
(1491763934.130842) can0 20C#02540000033D00C6
(1491763934.132902) can0 0D4#00E0804A5D000082
(1491763934.137346) can0 064#FFC000F00E01554A
(1491763934.138543) can0 0A6#00000C0B000000CD
(1491763934.139712) can0 090#03E20000000C004D
(1491763934.140873) can0 0C8#000001B1000000C7
(1491763934.140874) can0 12C#7D730000033D11C1
(1491763934.140875) can0 188#0000000100000EC5
(1491763934.142020) can0 1C0#0000000000000000
(1491763934.144194) can0 0D4#00E0804A5E0000CD
(1491763934.148898) can0 0A6#00000C0B00000009
(1491763934.150089) can0 0C8#000001EB00000006
(1491763934.151277) can0 12C#7D730000033D110D
(1491763934.151278) can0 188#0000000100000E01
(1491763934.151278) can0 20C#02540000033D0002
(1491763934.153676) can0 0D4#00E0804A5E000009
(1491763934.154821) can0 1F4#066400013DF700C0
(1491763934.158404) can0 064#FFC000F00E015586
(1491763934.159574) can0 0A6#00000C0B00000045
(1491763934.160935) can0 090#03E20000000C0089
(1491763934.160936) can0 0C8#0000021E0000004B
(1491763934.160936) can0 12C#7D730000037E1144
(1491763934.161945) can0 188#0000000100000E4D
(1491763934.161946) can0 1C0#0000000000000000
(1491763934.164188) can0 0D4#00E0804A5D000046
(1491763934.168599) can0 0A6#00000C0B00000081
(1491763934.169730) can0 0C8#000002620000008E
(1491763934.170869) can0 12C#7D730000037E1180
(1491763934.170869) can0 188#0000000100000E89
(1491763934.170869) can0 20C#02540000037E0049
(1491763934.172938) can0 0D4#00E0804A5D000082
(1491763934.174061) can0 2E4#00000000000000C4
(1491763934.178631) can0 064#FFC000F00E0155C2
(1491763934.179704) can0 0A6#00000C0B000000CD
(1491763934.180815) can0 090#03E20000000C00C5
(1491763934.180816) can0 0C8#00000276000000C5
(1491763934.180816) can0 12C#7D73000003B411C2
(1491763934.181957) can0 188#0000000100000EC5
(1491763934.181957) can0 1C0#0000000000000000
(1491763934.182912) can0 0D4#00E0804A5E0000CD
(1491763934.189785) can0 0A6#00000C0B00000009
(1491763934.190938) can0 0C8#000002A50000000F
(1491763934.192080) can0 12C#7D73000003B4110E
(1491763934.192081) can0 188#0000000100000E01
(1491763934.192081) can0 20C#0254000003B4008B
(1491763934.192920) can0 0D4#00E0804A5D00000A
(1491763934.194080) can0 1F4#066400013DF70000
(1491763934.197411) can0 064#FFC000F00E01550E
(1491763934.198606) can0 0A6#00000C0B00000045
(1491763934.199756) can0 090#03E20000000C0001
(1491763934.201703) can0 0C8#000002C00000004E
(1491763934.201704) can0 12C#7D73000003E0114B
(1491763934.201705) can0 188#0000000100000E4D
(1491763934.202878) can0 1C0#0000000000000000
(1491763934.203942) can0 0D4#00E0804A5D000046
(1491763934.208698) can0 0A6#00000C0B00000081
(1491763934.209904) can0 0C8#000002FD0000008A
(1491763934.211103) can0 12C#7D73000003E01187
(1491763934.211104) can0 188#0000000100000E89
(1491763934.211104) can0 20C#0254000003E000C8
(1491763934.212301) can0 224#00EF00040000E0C5
(1491763934.213505) can0 0D4#00E0804A5D000082
(1491763934.218269) can0 064#FFC000F00E01554A
(1491763934.219406) can0 0A6#00000C0B000000CD
(1491763934.220773) can0 090#03E20000000C004D
(1491763934.220781) can0 0C8#00000335000000C9
(1491763934.220781) can0 12C#7D73000003FF11C3
(1491763934.221740) can0 188#0000000100000EC5
(1491763934.221745) can0 1C0#0000000000000000
(1491763934.224092) can0 0D4#00E0804A5D0000CE
(1491763934.228444) can0 0A6#00000C0B00000009
(1491763934.229611) can0 0C8#0000034E0000000B
(1491763934.230779) can0 12C#7D73000003FF110F
(1491763934.230780) can0 188#0000000100000E01
(1491763934.230780) can0 20C#0254000003FF0004
(1491763934.234202) can0 0D4#00E0804A5D00000A
(1491763934.235392) can0 1F4#066400013DF70040
(1491763934.237602) can0 064#FFC000F00E015586
(1491763934.238836) can0 0A6#00000C0B00000045
(1491763934.239688) can0 090#02400000000C0086
(1491763934.240900) can0 0C8#0000037C00000046
(1491763934.240901) can0 12C#7D73000004111146
(1491763934.240902) can0 188#0000000100000E4D
(1491763934.242132) can0 1C0#0000000000000000
(1491763934.243189) can0 0D4#00E0804A5D000046
(1491763934.247822) can0 0C8#000003A200000089
(1491763934.249093) can0 0A6#00000C0B00000081
(1491763934.250314) can0 12C#7D73000004111182
(1491763934.251543) can0 188#0000000100000E89
(1491763934.251545) can0 20C#025400000411004B
(1491763934.253984) can0 0D4#00E0004A5D00008A
(1491763934.258754) can0 064#FFC000F00E0156C1
(1491763934.259996) can0 0A6#00000C0B000000CD
(1491763934.261256) can0 090#02070000000C00CF
(1491763934.261258) can0 0C8#000003C2000000C3
(1491763934.261258) can0 12C#7D730000041E11C1
(1491763934.262406) can0 188#0000000100000EC5
(1491763934.262408) can0 1C0#0000000000000000
(1491763934.263316) can0 0D4#00E0004A5D0000C6
(1491763934.268404) can0 0A6#00000C0B00000009
(1491763934.269545) can0 0C8#000003DC00000004
(1491763934.270778) can0 12C#7D730000042C110E
(1491763934.270779) can0 188#0000000100000E01
(1491763934.270779) can0 20C#02540000042C008B
(1491763934.273155) can0 0D4#00E0004A5D000002
(1491763934.274458) can0 1F4#066400013DF70080
(1491763934.275647) can0 2E4#0000000000000000
(1491763934.276893) can0 405#010D100000010000
(1491763934.277623) can0 064#FFC000F00E01560D
(1491763934.278906) can0 0A6#00000C0B00000045
(1491763934.280106) can0 090#02030000000C000F
(1491763934.281366) can0 0C8#000003F200000048
(1491763934.281368) can0 12C#7D730000042C114A
(1491763934.281368) can0 188#0000000100000E4D
(1491763934.282554) can0 1C0#0000000000000000
(1491763934.283776) can0 0D4#00E0004A5E00004D
(1491763934.288707) can0 0A6#00000C0B00000081
(1491763934.289958) can0 0C8#0000040400000080
(1491763934.291184) can0 12C#7D73000004401180
(1491763934.291185) can0 188#0000000100000E89
(1491763934.291185) can0 20C#02540000044000C1
(1491763934.293158) can0 0D4#00E0004A5D00008A
(1491763934.298128) can0 064#FFC000F00E015649
(1491763934.299318) can0 0A6#00000C0B000000CD
(1491763934.300533) can0 090#02020000000C004C
(1491763934.300535) can0 0C8#00000412000000CD
(1491763934.300535) can0 12C#7D730000044011CC
(1491763934.301835) can0 188#0000000100000EC5
(1491763934.301837) can0 1C0#0000000000000000
(1491763934.304314) can0 0D4#00E0004A5D0000C6
(1491763934.307726) can0 0A6#00000C0C00000008
(1491763934.309002) can0 0C8#0000041D0000000E
(1491763934.310239) can0 12C#7D73000004561101
(1491763934.311476) can0 188#0000000100000E01
(1491763934.311477) can0 20C#0254000004560006
(1491763934.311477) can0 224#00EF00060000E00F
(1491763934.313913) can0 0D4#00E0004A5E000001
(1491763934.315149) can0 1F4#066400013DF700C0
(1491763934.318888) can0 064#FFC000F00E015685
(1491763934.320056) can0 0A6#00000C0C00000044
(1491763934.321317) can0 090#02020000000C0088
(1491763934.321318) can0 0C8#0000042400000042
(1491763934.321319) can0 12C#7D7300000456114D
(1491763934.322558) can0 188#0000000100000E4D
(1491763934.322560) can0 1C0#0000000000000000
(1491763934.323765) can0 0D4#00E0004A5D00004E
(1491763934.328736) can0 0A6#00000C0C00000080
(1491763934.329978) can0 0C8#0000042A00000088
(1491763934.331217) can0 12C#7D73000004681186
(1491763934.331219) can0 188#0000000100000E89
(1491763934.331219) can0 20C#025400000468004F
(1491763934.333198) can0 0D4#00E0004A5E000089
(1491763934.338227) can0 064#FFC000F00E0156C1
(1491763934.339345) can0 12C#7D730000046811C2
(1491763934.340602) can0 090#02020000000C00C4
(1491763934.340603) can0 0A6#00000C0C000000CC
(1491763934.340603) can0 0C8#0000042F000000CF
(1491763934.341861) can0 188#0000000100000EC5
(1491763934.341862) can0 1C0#0000000000000000
(1491763934.344322) can0 0D4#00E0004A5D0000C6
(1491763934.349083) can0 0A6#00000C0C00000008
(1491763934.350289) can0 0C8#0000043500000004
(1491763934.351530) can0 12C#7D730000047A110B
(1491763934.351531) can0 188#0000000100000E01
(1491763934.351532) can0 20C#02540000047A0088
(1491763934.353985) can0 0D4#00E0004A5D000002
(1491763934.355097) can0 1F4#066400013DF70000
(1491763934.358780) can0 064#FFC000F00E01570C
(1491763934.360075) can0 0A6#00000C0C00000044
(1491763934.361282) can0 090#02010000000C0001
(1491763934.361283) can0 0C8#0000043A0000004B
(1491763934.361284) can0 12C#7D730000048D1143
(1491763934.362538) can0 188#0000000100000E4D
(1491763934.362539) can0 1C0#0000000000000000
(1491763934.363742) can0 0D4#00E0004A5D00004E
(1491763934.368732) can0 0A6#00000C0C00000080
(1491763934.369981) can0 0C8#0000044000000080
(1491763934.371240) can0 12C#7D730000048D118F
(1491763934.371242) can0 188#0000000100000E89
(1491763934.371244) can0 20C#02540000048D00C0
(1491763934.373743) can0 0D4#00E0004A5E000089
(1491763934.374994) can0 2E4#000000000000004C
(1491763934.378615) can0 064#FFC000F00E015748
(1491763934.379879) can0 0A6#00000C0C000000CC
(1491763934.381133) can0 090#02000000000C004E
(1491763934.381135) can0 0C8#00000446000000C6
(1491763934.381135) can0 12C#7D730000049711C0
(1491763934.382394) can0 188#0000000100000EC5
(1491763934.382396) can0 1C0#0000000000000000
(1491763934.383624) can0 0D4#00E0004A5D0000C6
(1491763934.388556) can0 0A6#00000C0C00000008
(1491763934.389772) can0 0C8#0000044D0000000B
(1491763934.391024) can0 12C#7D7300000497110C
(1491763934.391026) can0 188#0000000100000E01
(1491763934.391026) can0 20C#0254000004970001
(1491763934.393161) can0 0D4#00E0004A5D000002
(1491763934.394368) can0 1F4#066400013DF70040
(1491763934.397606) can0 064#FFC000F00E015982
(1491763934.398876) can0 0A6#00000C0C00000044
(1491763934.400256) can0 090#02000000000C008A
(1491763934.401354) can0 0C8#000004550000004E
(1491763934.401355) can0 12C#7D730000049C1143
(1491763934.401355) can0 188#0000000100000E4D
(1491763934.402593) can0 1C0#0000000000000000
(1491763934.403785) can0 0D4#00E0004A5D00004E
(1491763934.408563) can0 0A6#00000C0C00000080
(1491763934.409644) can0 0C8#0000045F00000080
(1491763934.410923) can0 12C#7D73000004A51185
(1491763934.410924) can0 188#0000000100000E89
(1491763934.410924) can0 20C#0254000004A5004E
(1491763934.412175) can0 224#00EF00060000E04B
(1491763934.413079) can0 0D4#00E0004A5D00008A
(1491763934.417730) can0 064#FFC000F00E015CCB
(1491763934.419076) can0 0A6#00000C0C000000CC
(1491763934.420317) can0 090#02020000000C00C4
(1491763934.421570) can0 0C8#00000464000000C6
(1491763934.421571) can0 12C#7D73000004A511C1
(1491763934.421572) can0 188#0000000100000EC5
(1491763934.422828) can0 1C0#0000000000000000
(1491763934.424035) can0 0D4#00E0004A5E0000C5
(1491763934.429023) can0 0A6#00000C0C00000008
(1491763934.430227) can0 0C8#000004670000000F
(1491763934.431478) can0 12C#7D73000004AD1105
(1491763934.431479) can0 188#0000000100000E01
(1491763934.431479) can0 20C#0254000004AD0082
(1491763934.433948) can0 0D4#00E0004A5D000002
(1491763934.435005) can0 1F4#066400013DF70080
(1491763934.438831) can0 064#FFC000F00E016002
(1491763934.440040) can0 0A6#00000C0C00000044
(1491763934.441278) can0 090#02020000000C0000
(1491763934.441280) can0 0C8#0000046B00000047
(1491763934.441280) can0 12C#7D73000004AD1141
(1491763934.442530) can0 188#0000000100000E4D
(1491763934.442532) can0 1C0#0000000000000000
(1491763934.443293) can0 0D4#00E0004A5D00004E
(1491763934.447876) can0 0A6#00000C0C00000080
(1491763934.449150) can0 0C8#000004700000008D
(1491763934.450381) can0 12C#7D73000004B81181
(1491763934.451622) can0 188#0000000100000E89
(1491763934.451623) can0 20C#0254000004B800C2
(1491763934.454062) can0 0D4#00E0004A5D00008A
(1491763934.457621) can0 064#FFC000F00E01634B
(1491763934.458929) can0 0A6#00000C0C000000CC
(1491763934.460138) can0 090#02040000000C004A
(1491763934.461381) can0 0C8#00000477000000C2
(1491763934.461382) can0 12C#7D73000004BF11C6
(1491763934.461383) can0 188#0000000100000EC5
(1491763934.462637) can0 1C0#0000000000000000
(1491763934.463836) can0 0D4#00E0004A5D0000C6
(1491763934.468771) can0 0A6#00000C0C00000008
(1491763934.469980) can0 0C8#0000047C00000009
(1491763934.471109) can0 12C#7D73000004BF1102
(1491763934.471113) can0 188#0000000100000E01
(1491763934.471114) can0 20C#0254000004BF0007
(1491763934.473129) can0 0D4#00E0004A5D000002
(1491763934.474349) can0 1F4#066400013DF700C0
(1491763934.475580) can0 2E4#0000000000000088
(1491763934.477636) can0 064#FFC000F00E016783
(1491763934.478899) can0 090#02030000000C0087
(1491763934.479941) can0 0A6#00000C0C00000044
(1491763934.481075) can0 0C8#0000048000000040
(1491763934.481076) can0 12C#7D73000004BF114E
(1491763934.481077) can0 188#0000000100000E4D
(1491763934.482370) can0 1C0#0000000000000000
(1491763934.483588) can0 0D4#00E0004A5D00004E
(1491763934.488449) can0 0A6#00000C0C00000080
(1491763934.489550) can0 0C8#0000048400000088
(1491763934.490804) can0 12C#7D73000004BF118A
(1491763934.490805) can0 188#0000000100000E89
(1491763934.490806) can0 20C#0254000004BF0043
(1491763934.493185) can0 0D4#00E0004A5E000089
(1491763934.497688) can0 064#FFC000F00E016CCA
(1491763934.498917) can0 0A6#00000C0C000000CC
(1491763934.500134) can0 090#02030000000C00C3
(1491763934.501391) can0 0C8#00000487000000C1
(1491763934.501393) can0 12C#7D73000004C411C0
(1491763934.501393) can0 188#0000000100000EC5
(1491763934.502636) can0 1C0#0000000000000000
(1491763934.503841) can0 0D4#00E0004A5D0000C6
(1491763934.508710) can0 0A6#00000C0C00000008
(1491763934.510001) can0 0C8#0000048C00000008
(1491763934.511199) can0 12C#7D73000004C71109
(1491763934.511201) can0 188#0000000100000E01
(1491763934.511201) can0 20C#0254000004C70086
(1491763934.512475) can0 224#00EF00080000E085
(1491763934.513679) can0 0D4#00E0004A5D000002
(1491763934.514927) can0 1F4#066400013DF70000
(1491763934.518825) can0 064#FFC000F00E017001
(1491763934.520087) can0 0A6#00000C0C00000044
(1491763934.521333) can0 090#02020000000C0000
(1491763934.521334) can0 0C8#0000048F00000041
(1491763934.521335) can0 12C#7D73000004C71145
(1491763934.522568) can0 188#0000000100000E4D
(1491763934.522569) can0 1C0#0000000000000000
(1491763934.523785) can0 0D4#00E0004A5D00004E
(1491763934.528748) can0 0A6#00000C0C00000080
(1491763934.530016) can0 0C8#000004910000008A
(1491763934.531245) can0 12C#7D73000004CA118E
(1491763934.531247) can0 188#0000000100000E89
(1491763934.531247) can0 20C#0254000004CA00CF
(1491763934.533735) can0 0D4#00E0004A5D00008A
(1491763934.538674) can0 064#FFC000F00E01734A
(1491763934.539925) can0 0A6#00000C0C000000CC
(1491763934.541064) can0 090#02030000000C004B
(1491763934.541066) can0 0C8#00000493000000C4
(1491763934.541066) can0 12C#7D73000004CA11CA
(1491763934.542320) can0 188#0000000100000EC5
(1491763934.542322) can0 1C0#0000000000000000
(1491763934.544614) can0 0D4#00E0004A5D0000C6
(1491763934.547848) can0 0A6#00000C0C00000008
(1491763934.549090) can0 0C8#000004960000000D
(1491763934.550307) can0 12C#7D73000004C91107
(1491763934.551541) can0 188#0000000100000E01
(1491763934.551543) can0 20C#0254000004C9000C
(1491763934.553898) can0 0D4#00E0004A5D000002
(1491763934.555130) can0 1F4#066400013DF70040
(1491763934.558867) can0 064#FFC000F00E017881
(1491763934.560106) can0 0A6#00000C0C00000044
(1491763934.561317) can0 090#02020000000C0088
(1491763934.561318) can0 0C8#0000049800000047
(1491763934.561319) can0 12C#7D73000004C41148
(1491763934.562366) can0 188#0000000100000E4D
(1491763934.562368) can0 1C0#0000000000000000
(1491763934.563318) can0 0D4#00E0004A5D00004E
(1491763934.567870) can0 0A6#00000C0C00000080
(1491763934.569151) can0 0C8#0000049800000083
(1491763934.570357) can0 12C#7D73000004C41184
(1491763934.571593) can0 188#0000000100000E89
(1491763934.571594) can0 20C#0254000004C4004D
(1491763934.574048) can0 0D4#00E0004A5D00008A
(1491763934.575283) can0 2E4#00000000000000C4
(1491763934.576520) can0 405#010D10000001004C
(1491763934.578964) can0 064#FFC000F00E017CC9
(1491763934.580167) can0 0A6#00000C0C000000CC
(1491763934.581413) can0 090#02030000000C00C3
(1491763934.581414) can0 0C8#00000498000000CF
(1491763934.581415) can0 12C#7D73000004C211C2
(1491763934.582621) can0 188#0000000100000EC5
(1491763934.582623) can0 1C0#0000000000000000
(1491763934.583835) can0 0D4#00E0004A5D0000C6
(1491763934.588724) can0 0A6#00000C0C00000008
(1491763934.590029) can0 0C8#000004970000000C
(1491763934.591197) can0 12C#7D73000004C1110F
(1491763934.591198) can0 188#0000000100000E01
(1491763934.591199) can0 20C#0254000004C1008C
(1491763934.593169) can0 0D4#00E0004A5E000001
(1491763934.594385) can0 1F4#066400013DF70080
(1491763934.597700) can0 064#FFC000F00E018000
(1491763934.598862) can0 0A6#00000C0C00000044
(1491763934.600004) can0 090#02020000000C0000
(1491763934.601283) can0 0C8#0000049700000048
(1491763934.601284) can0 12C#7D73000004C1114B
(1491763934.601285) can0 188#0000000100000E4D
(1491763934.602510) can0 1C0#0000000000000000
(1491763934.603758) can0 0D4#00E0004A5D00004E
(1491763934.608735) can0 0A6#00000C0C00000080
(1491763934.609992) can0 0C8#0000049700000084
(1491763934.611249) can0 12C#7D73000004BF118A
(1491763934.611250) can0 188#0000000100000E89
(1491763934.611251) can0 20C#0254000004BF00CB
(1491763934.612379) can0 224#00EF00080000E0C1
(1491763934.613687) can0 0D4#00E0004A5D00008A
(1491763934.618678) can0 064#FFC000F00E018448
(1491763934.619916) can0 0A6#00000C0C000000CC
(1491763934.621156) can0 090#02020000000D004B
(1491763934.621157) can0 0C8#00000496000000C1
(1491763934.621158) can0 12C#7D73000004BF11C6
(1491763934.622230) can0 188#0000000100000EC5
(1491763934.622231) can0 1C0#0000000000000000
(1491763934.623172) can0 0D4#00E0004A5D0000C6
(1491763934.627881) can0 0A6#00000C0C00000008
(1491763934.629101) can0 0C8#000004940000000F
(1491763934.630349) can0 12C#7D73000004C01100
(1491763934.631586) can0 188#0000000100000E01
(1491763934.631587) can0 20C#0254000004C00005
(1491763934.633885) can0 0D4#00E0004A5D000002
(1491763934.635149) can0 1F4#066400013DF700C0
(1491763934.639364) can0 064#FFC000F00E018880
(1491763934.640668) can0 0A6#00000C0C00000044
(1491763934.641945) can0 090#02010000000D0088
(1491763934.641947) can0 0C8#000004930000004C
(1491763934.641947) can0 12C#7D73000004C1114B
(1491763934.643183) can0 188#0000000100000E4D
(1491763934.643184) can0 1C0#0000000000000000
(1491763934.644348) can0 0D4#00E0004A5D00004E
(1491763934.649055) can0 0A6#00000C0C00000080
(1491763934.650272) can0 0C8#0000049200000089
(1491763934.651484) can0 12C#7D73000004C11187
(1491763934.651485) can0 188#0000000100000E89
(1491763934.651485) can0 20C#0254000004C10040
(1491763934.653957) can0 0D4#00E0004A5D00008A
(1491763934.658884) can0 064#FFC000F00E018CC8
(1491763934.660123) can0 0A6#00000C0C000000CC
(1491763934.661363) can0 090#02020000000D00C3
(1491763934.661365) can0 0C8#00000492000000C5
(1491763934.661365) can0 12C#7D73000004BC11C9
(1491763934.662619) can0 188#0000000100000EC5
(1491763934.662621) can0 1C0#0000000000000000
(1491763934.663870) can0 0D4#00E0004A5D0000C6
(1491763934.668681) can0 0A6#00000C0C00000008
(1491763934.669938) can0 0C8#0000049000000003
(1491763934.671165) can0 12C#7D73000004BC1105
(1491763934.671167) can0 188#0000000100000E01
(1491763934.671167) can0 20C#0254000004BC0082
(1491763934.673133) can0 0D4#00E0004A5D000002
(1491763934.674336) can0 1F4#066400013DF70000
(1491763934.675575) can0 2E4#0000000000000000
(1491763934.677697) can0 064#FFC000F00E01900F
(1491763934.678959) can0 0A6#00000C0C00000044
(1491763934.680044) can0 090#02010000000D0000
(1491763934.681281) can0 0C8#0000048F00000041
(1491763934.681283) can0 12C#7D73000004B41149
(1491763934.681283) can0 188#0000000100000E4D
(1491763934.682541) can0 1C0#0000000000000000
(1491763934.683740) can0 0D4#00E0004A5D00004E
(1491763934.688701) can0 0A6#00000C0C00000080
(1491763934.689938) can0 0C8#0000048D0000008F
(1491763934.691216) can0 12C#7D73000004B11188
(1491763934.691218) can0 188#0000000100000E89
(1491763934.691218) can0 20C#0254000004B100C9
(1491763934.693731) can0 0D4#00E0004A5D00008A
(1491763934.698708) can0 064#FFC000F00E019348
(1491763934.699913) can0 0A6#00000C0C000000CC
(1491763934.701167) can0 090#02010000000D004C
(1491763934.701168) can0 0C8#0000048B000000CD
(1491763934.701169) can0 12C#7D73000004B111C4
(1491763934.702424) can0 188#0000000100000EC5
(1491763934.702426) can0 1C0#0000000000000000
(1491763934.703208) can0 0D4#00E0004A5D0000C6
(1491763934.707915) can0 0A6#00000C0C00000008
(1491763934.709103) can0 0C8#000004890000000B
(1491763934.710359) can0 12C#7D73000004B01101
(1491763934.711597) can0 188#0000000100000E01
(1491763934.711598) can0 20C#0254000004B00006
(1491763934.711598) can0 224#00EF000A0000E00B
(1491763934.714111) can0 0D4#00E0004A5D000002
(1491763934.715086) can0 1F4#066400013DF70040
(1491763934.718573) can0 064#FFC000F00E019681
(1491763934.719736) can0 0A6#00000C0C00000044
(1491763934.720869) can0 090#02030000000D0086
(1491763934.720870) can0 0C8#000004860000004A
(1491763934.720871) can0 12C#7D73000004B0114D
(1491763934.721980) can0 188#0000000100000E4D
(1491763934.721980) can0 1C0#0000000000000000
(1491763934.722863) can0 0D4#00E0004A5E00004D
(1491763934.729669) can0 0A6#00000C0C00000080
(1491763934.730792) can0 0C8#0000048400000088
(1491763934.731947) can0 12C#7D73000004AD118D
(1491763934.731948) can0 188#0000000100000E89
(1491763934.731948) can0 20C#0254000004AD0046
(1491763934.734106) can0 0D4#00E0004A5D00008A
(1491763934.738643) can0 064#FFC000F00E019AC9
(1491763934.739811) can0 0A6#00000C0C000000CC
(1491763934.740941) can0 090#02030000000D00C2
(1491763934.740942) can0 0C8#00000482000000C6
(1491763934.740942) can0 12C#7D73000004AC11CA
(1491763934.742074) can0 188#0000000100000EC5
(1491763934.742074) can0 1C0#0000000000000000
(1491763934.743063) can0 0D4#00E0004A5D0000C6
(1491763934.749855) can0 0A6#00000C0C00000008
(1491763934.750969) can0 0C8#0000047F00000006
(1491763934.752110) can0 12C#7D73000004AC1106
(1491763934.752110) can0 188#0000000100000E01
(1491763934.752110) can0 20C#0254000004AC0083
(1491763934.753143) can0 0D4#00E0004A5E000001
(1491763934.754244) can0 1F4#066400013DF70080
(1491763934.757511) can0 064#FFC000F00E019D02
(1491763934.758658) can0 0A6#00000C0C00000044
(1491763934.759765) can0 090#02030000000D000E
(1491763934.760899) can0 0C8#0000047E00000043
(1491763934.760899) can0 12C#7D73000004AA1144
(1491763934.760901) can0 188#0000000100000E4D
(1491763934.762065) can0 1C0#0000000000000000
(1491763934.763119) can0 0D4#00E0004A5D00004E
(1491763934.769925) can0 0A6#00000C0C00000080
(1491763934.771048) can0 0C8#0000047C00000081
(1491763934.772222) can0 12C#7D73000004AA1180
(1491763934.772223) can0 188#0000000100000E89
(1491763934.772223) can0 20C#0254000004AA00C1
(1491763934.773348) can0 0D4#00E0004A5D00008A
(1491763934.774491) can0 2E4#000000000000004C
(1491763934.777928) can0 064#FFC000F00E01A04A
(1491763934.779065) can0 0A6#00000B0C000000CD
(1491763934.780219) can0 090#02020000000D004B
(1491763934.781362) can0 0C8#0000047A000000CF
(1491763934.781362) can0 12C#7D73000004A311C3
(1491763934.781363) can0 188#0000000100000EC5
(1491763934.782526) can0 1C0#0000000000000000
(1491763934.783665) can0 0D4#00E0004A5D0000C6
(1491763934.788002) can0 0C8#000004780000000D
(1491763934.789086) can0 0A6#00000B0C00000009
(1491763934.790222) can0 12C#7D73000004A01102
(1491763934.791317) can0 188#0000000100000E01
(1491763934.791318) can0 20C#0254000004A00007
(1491763934.793695) can0 0D4#00E0004A5D000002
(1491763934.794832) can0 1F4#066400013DF700C0
(1491763934.798327) can0 064#FFC000F00E01A482
(1491763934.799545) can0 0A6#00000B0B00000046
(1491763934.800717) can0 090#02040000000D0085
(1491763934.800718) can0 0C8#000004750000004C
(1491763934.800718) can0 12C#7D73000004A0114E
(1491763934.801726) can0 188#0000000100000E4D
(1491763934.801727) can0 1C0#0000000000000000
(1491763934.803874) can0 0D4#00E0004A5D00004E
(1491763934.808317) can0 0A6#00000B0B00000082
(1491763934.809459) can0 0C8#000004730000008A
(1491763934.810678) can0 12C#7D73000004981183
(1491763934.810678) can0 188#0000000100000E89
(1491763934.811870) can0 20C#025400000498004C
(1491763934.811871) can0 224#00EF000A0000E047
(1491763934.814214) can0 0D4#00E0004A5E000089
(1491763934.817589) can0 064#FFC000F00E01A6CC
(1491763934.819174) can0 0A6#00000B0B000000CE
(1491763934.820392) can0 090#02030000000D00C2
(1491763934.821585) can0 0C8#00000470000000C9
(1491763934.821586) can0 12C#7D730000049811CF
(1491763934.821586) can0 188#0000000100000EC5
(1491763934.822789) can0 1C0#0000000000000000
(1491763934.823953) can0 0D4#00E0004A5D0000C6
(1491763934.828750) can0 0A6#00000B0B0000000A
(1491763934.829950) can0 0C8#0000046E00000008
(1491763934.831028) can0 12C#7D730000048F1105
(1491763934.831029) can0 188#0000000100000E01
(1491763934.831030) can0 20C#02540000048F0082
(1491763934.833128) can0 0D4#00E0004A5D000002
(1491763934.834360) can0 1F4#066400013DF70000
(1491763934.837607) can0 064#FFC000F00E01A905
(1491763934.838905) can0 0A6#00000B0B00000046
(1491763934.839988) can0 090#02030000000D000E
(1491763934.841285) can0 0C8#0000046B00000047
(1491763934.841287) can0 12C#7D730000048F1141
(1491763934.841288) can0 188#0000000100000E4D
(1491763934.842459) can0 1C0#0000000000000000
(1491763934.843293) can0 0D4#00E0004A5E00004D
(1491763934.847893) can0 0A6#00000B0B00000082
(1491763934.849092) can0 0C8#0000046700000087
(1491763934.850331) can0 12C#7D730000048A1182
(1491763934.851571) can0 188#0000000100000E89
(1491763934.851572) can0 20C#02540000048A00C3
(1491763934.854097) can0 0D4#00E0004A5D00008A
(1491763934.857684) can0 064#FFC000F00E01AC4E
(1491763934.858988) can0 0A6#00000B0B000000CE
(1491763934.860236) can0 090#02020000000D004B
(1491763934.861519) can0 0C8#00000463000000C7
(1491763934.861523) can0 12C#7D730000048311C5
(1491763934.861524) can0 188#0000000100000EC5
(1491763934.862688) can0 1C0#0000000000000000
(1491763934.863927) can0 0D4#00E0004A5D0000C6
(1491763934.868707) can0 0A6#00000B0B0000000A
(1491763934.869962) can0 0C8#0000046000000006
(1491763934.871197) can0 12C#7D73000004831101
(1491763934.871199) can0 188#0000000100000E01
(1491763934.871199) can0 20C#0254000004830006
(1491763934.873706) can0 0D4#00E0004A5D000002
(1491763934.874953) can0 1F4#066400013DF70040
(1491763934.876165) can0 2E4#0000000000000088
(1491763934.876167) can0 405#010D100000010088
(1491763934.878649) can0 064#FFC000F00E01B085
(1491763934.879899) can0 0A6#00000B0B00000046
(1491763934.881129) can0 090#02020000000D0087
(1491763934.881130) can0 0C8#0000045D00000046
(1491763934.881131) can0 12C#7D730000047D1144
(1491763934.882368) can0 188#0000000100000E4D
(1491763934.882370) can0 1C0#0000000000000000
(1491763934.883123) can0 0D4#00E0004A5D00004E
(1491763934.887890) can0 0A6#00000B0B00000082
(1491763934.889050) can0 0C8#0000045700000088
(1491763934.890296) can0 12C#7D730000047D1180
(1491763934.891532) can0 188#0000000100000E89
(1491763934.891534) can0 20C#02540000047D0049
(1491763934.893976) can0 0D4#00E0004A5D00008A
(1491763934.898968) can0 064#FFC000F00E01B2CF
(1491763934.900225) can0 0A6#00000B0B000000CE
(1491763934.901479) can0 090#02020000000D00C3
(1491763934.901481) can0 0C8#00000453000000C8
(1491763934.901482) can0 12C#7D730000047C11CD
(1491763934.902722) can0 188#0000000100000EC5
(1491763934.902724) can0 1C0#0000000000000000
(1491763934.903974) can0 0D4#00E0004A5D0000C6
(1491763934.908915) can0 0A6#00000B0B0000000A
(1491763934.910167) can0 0C8#0000045000000007
(1491763934.911404) can0 12C#7D730000047C1109
(1491763934.911406) can0 188#0000000100000E01
(1491763934.911406) can0 20C#02540000047C0086
(1491763934.912623) can0 224#00EF000C0000E081
(1491763934.913763) can0 0D4#00E0004A5D000002
(1491763934.915017) can0 1F4#066400013DF70080
(1491763934.918705) can0 064#FFC000F00E01B409
(1491763934.919939) can0 0A6#00000B0B00000046
(1491763934.921194) can0 090#02020000000D000F
(1491763934.921195) can0 0C8#0000044D00000047
(1491763934.921197) can0 12C#7D7300000476114B
(1491763934.922428) can0 188#0000000100000E4D
(1491763934.922430) can0 1C0#0000000000000000
(1491763934.923706) can0 0D4#00E0004A5D00004E
(1491763934.928683) can0 0A6#00000B0B00000082
(1491763934.929900) can0 0C8#0000044B00000085
(1491763934.931151) can0 12C#7D7300000471118C
(1491763934.931154) can0 188#0000000100000E89
(1491763934.931154) can0 20C#02540000047100CD
(1491763934.933267) can0 0D4#00E0004A5D00008A
(1491763934.937709) can0 064#FFC000F00E01B742
(1491763934.938944) can0 0A6#00000B0B000000CE
(1491763934.940185) can0 090#02020000000D004B
(1491763934.941423) can0 0C8#00000447000000C5
(1491763934.941425) can0 12C#7D730000047111C8
(1491763934.941426) can0 188#0000000100000EC5
(1491763934.942658) can0 1C0#0000000000000000
(1491763934.943942) can0 0D4#00E0004A5D0000C6
(1491763934.948881) can0 0A6#00000B0B0000000A
(1491763934.950198) can0 0C8#0000044400000004
(1491763934.951448) can0 12C#7D730000046D1109
(1491763934.951451) can0 188#0000000100000E01
(1491763934.951452) can0 20C#02540000046D000E
(1491763934.953910) can0 0D4#00E0004A5D000002
(1491763934.955146) can0 1F4#066400013DF700C0
(1491763934.958814) can0 064#FFC000F00E01B98C
(1491763934.960065) can0 0A6#00000B0B00000046
(1491763934.961301) can0 090#02010000000D0088
(1491763934.961303) can0 0C8#0000044000000044
(1491763934.961303) can0 12C#7D730000046D1145
(1491763934.962533) can0 188#0000000100000E4D
(1491763934.962534) can0 1C0#0000000000000000
(1491763934.963291) can0 0D4#00E0004A5E00004D
(1491763934.967850) can0 0A6#00000B0B00000082
(1491763934.969096) can0 0C8#0000043D00000084
(1491763934.970228) can0 12C#7D7300000463118B
(1491763934.971461) can0 188#0000000100000E89
(1491763934.971462) can0 20C#0254000004630044
(1491763934.973933) can0 0D4#00E0004A5D00008A
(1491763934.975155) can0 2E4#00000000000000C4
(1491763934.978927) can0 0C8#0000043A000000C3
(1491763934.980098) can0 064#FFC000F00E01BDC4
(1491763934.981337) can0 0A6#00000B0B000000CE
(1491763934.981338) can0 090#02020000000D00C3
(1491763934.981338) can0 12C#7D730000046311C7
(1491763934.982577) can0 188#0000000100000EC5
(1491763934.982578) can0 1C0#0000000000000000
(1491763934.983812) can0 0D4#00E0004A5D0000C6
(1491763934.988815) can0 0A6#00000B0B0000000A
(1491763934.990011) can0 0C8#0000043500000004
(1491763934.991251) can0 12C#7D730000045A110D
(1491763934.991252) can0 188#0000000100000E01
(1491763934.991253) can0 20C#02540000045A008A
(1491763934.993543) can0 0D4#00E0004A5D000002
(1491763934.994852) can0 1F4#066400013DF70000
(1491763934.998624) can0 064#FFC000F00E01BF0E
(1491763934.999848) can0 0A6#00000B0B00000046
(1491763935.001089) can0 090#02030000000D000E
(1491763935.001090) can0 0C8#0000043000000045
(1491763935.001091) can0 12C#7D7300000457114C
(1491763935.002325) can0 188#0000000100000E4D
(1491763935.002326) can0 1C0#0000000000000000
(1491763935.003109) can0 0D4#00E0004A5D00004E
(1491763935.010217) can0 0A6#00000B0B00000082
(1491763935.011412) can0 0C8#0000042C00000086
(1491763935.012652) can0 12C#7D73000004571188
(1491763935.012653) can0 188#0000000100000E89
(1491763935.012654) can0 20C#02540000045700C9
(1491763935.013884) can0 224#00EF000C0000E0CD
(1491763935.015139) can0 0D4#00E0004A5D00008A
(1491763935.018814) can0 064#FFC000F00E01C246
(1491763935.020103) can0 0A6#00000B0B000000CE
(1491763935.021212) can0 090#02020000000D004B
(1491763935.021213) can0 0C8#00000427000000C7
(1491763935.021213) can0 12C#7D730000045211C9
(1491763935.022481) can0 188#0000000100000EC5
(1491763935.022482) can0 1C0#0000000000000000
(1491763935.023744) can0 0D4#00E0004A5D0000C6
(1491763935.028606) can0 0A6#00000B0B0000000A
(1491763935.029790) can0 0C8#0000042400000006
(1491763935.031045) can0 12C#7D73000004521105
(1491763935.031046) can0 188#0000000100000E01
(1491763935.031047) can0 20C#025400000452000A
(1491763935.033340) can0 0D4#00E0004A5D000002
(1491763935.034636) can0 1F4#066400013DF70040
(1491763935.038242) can0 064#FFC000F00E01C480
(1491763935.039388) can0 0A6#00000B0B00000046
(1491763935.040740) can0 090#02030000000D0086
(1491763935.040741) can0 0C8#0000042100000045
(1491763935.040741) can0 12C#7D730000044C1148
(1491763935.041916) can0 188#0000000100000E4D
(1491763935.041918) can0 1C0#0000000000000000
(1491763935.044436) can0 0D4#00E0004A5E00004D
(1491763935.047884) can0 0A6#00000B0B00000082
(1491763935.049159) can0 0C8#0000041D00000086
(1491763935.050372) can0 12C#7D730000044C1184
(1491763935.051534) can0 188#0000000100000E89
(1491763935.051535) can0 20C#02540000044C004D
(1491763935.055303) can0 0D4#00E0004A5E000089
(1491763935.059056) can0 064#FFC000F00E01C7C9
(1491763935.060249) can0 0A6#00000B0B000000CE
(1491763935.061492) can0 090#02030000000D00C2
(1491763935.061494) can0 0C8#00000419000000C6
(1491763935.061494) can0 12C#7D730000044811C4
(1491763935.062729) can0 188#0000000100000EC5
(1491763935.062730) can0 1C0#0000000000000000
(1491763935.065267) can0 0D4#00E0004A5D0000C6
(1491763935.068966) can0 0A6#00000B0B0000000A
(1491763935.070016) can0 0C8#0000041500000006
(1491763935.071359) can0 12C#7D73000004481100
(1491763935.071361) can0 188#0000000100000E01
(1491763935.071361) can0 20C#025400000448008D
(1491763935.074912) can0 0D4#00E0004A5D000002
(1491763935.076173) can0 1F4#066400013DF70080
(1491763935.077413) can0 2E4#0000000000000000
(1491763935.078647) can0 064#FFC000F00E01C804
(1491763935.079852) can0 0A6#00000B0B00000046
(1491763935.081111) can0 090#02030000000D000E
(1491763935.081112) can0 0C8#0000041200000045
(1491763935.081113) can0 12C#7D73000004401144
(1491763935.082365) can0 188#0000000100000E4D
(1491763935.082366) can0 1C0#0000000000000000
(1491763935.084854) can0 0D4#00E0004A5D00004E
(1491763935.088532) can0 0A6#00000B0B00000082
(1491763935.089789) can0 0C8#0000040E00000086
(1491763935.091032) can0 12C#7D73000004401180
(1491763935.091034) can0 188#0000000100000E89
(1491763935.091034) can0 20C#02540000044000C1
(1491763935.094763) can0 0D4#00E0004A5D00008A
(1491763935.098322) can0 064#FFC000F00E01CA4E
(1491763935.099562) can0 0A6#00000B0B000000CE
(1491763935.100801) can0 090#02030000000D004A
(1491763935.100802) can0 0C8#0000040B000000C5
(1491763935.100803) can0 12C#7D730000043811C5
(1491763935.102036) can0 188#0000000100000EC5
(1491763935.102037) can0 1C0#0000000000000000
(1491763935.104545) can0 0D4#00E0004A5D0000C6
(1491763935.107885) can0 0A6#00000B0B0000000A
(1491763935.109145) can0 0C8#0000040800000004
(1491763935.110365) can0 12C#7D73000004351104
(1491763935.111567) can0 188#0000000100000E01
(1491763935.111568) can0 20C#0254000004350009
(1491763935.111569) can0 224#00EF000C0000E009
(1491763935.113931) can0 0D4#00E0004A5D000002
(1491763935.115220) can0 1F4#066400013DF700C0
(1491763935.118830) can0 064#FFC000F00E01CB89
(1491763935.120069) can0 0A6#00000B0B00000046
(1491763935.121202) can0 090#02040000000D0085
(1491763935.121204) can0 0C8#0000040400000044
(1491763935.121204) can0 12C#7D73000004351140
(1491763935.122443) can0 188#0000000100000E4D
(1491763935.122444) can0 1C0#0000000000000000
(1491763935.124893) can0 0D4#00E0004A5D00004E
(1491763935.128595) can0 0A6#00000B0B00000082
(1491763935.129833) can0 0C8#0000040000000084
(1491763935.131083) can0 12C#7D730000042C1186
(1491763935.131085) can0 188#0000000100000E89
(1491763935.131085) can0 20C#02540000042C004F
(1491763935.134792) can0 0D4#00E0004A5D00008A
(1491763935.138529) can0 064#FFC000F00E01CCC4
(1491763935.139740) can0 0A6#00000B0B000000CE
(1491763935.141000) can0 090#02020000000D00C3
(1491763935.141001) can0 0C8#000003FC000000C6
(1491763935.141002) can0 12C#7D730000042C11C2
(1491763935.142180) can0 188#0000000100000EC5
(1491763935.142181) can0 1C0#0000000000000000
(1491763935.144185) can0 0D4#00E0004A5D0000C6
(1491763935.149120) can0 0A6#00000B0B0000000A
(1491763935.150381) can0 0C8#000003FB00000003
(1491763935.151623) can0 12C#7D73000004231107
(1491763935.151625) can0 188#0000000100000E01
(1491763935.151625) can0 20C#0254000004230084
(1491763935.155368) can0 0D4#00E0004A5D000002
(1491763935.156540) can0 1F4#066400013DF70000
(1491763935.158984) can0 064#FFC000F00E01CC00
(1491763935.160224) can0 0A6#00000B0B00000046
(1491763935.161462) can0 090#02030000000D000E
(1491763935.161463) can0 0C8#000003F700000043
(1491763935.161464) can0 12C#7D73000004231143
(1491763935.162716) can0 188#0000000100000E4D
(1491763935.162717) can0 1C0#0000000000000000
(1491763935.165181) can0 0D4#00E0004A5D00004E
(1491763935.168951) can0 0A6#00000B0B00000082
(1491763935.170183) can0 0C8#000003F300000083
(1491763935.171380) can0 12C#7D730000041A1189
(1491763935.171382) can0 188#0000000100000E89
(1491763935.171382) can0 20C#02540000041A00CA
(1491763935.175138) can0 0D4#00E0004A5D00008A
(1491763935.176339) can0 2E4#5700000000000040
(1491763935.177592) can0 405#010D1000000100C4
(1491763935.178855) can0 064#FFC000F00E01CC4C
(1491763935.180087) can0 0A6#00000B0B000000CE
(1491763935.181300) can0 090#02020000000D004B
(1491763935.181302) can0 0C8#000003EE000000C5
(1491763935.181302) can0 12C#7D730000041A11C5
(1491763935.182539) can0 188#0000000100000EC5
(1491763935.182540) can0 1C0#0000000000000000
(1491763935.185077) can0 0D4#00E0004A5D0000C6
(1491763935.188791) can0 0A6#00000B0B0000000A
(1491763935.189829) can0 0C8#000003E900000006
(1491763935.191011) can0 12C#7D7300000411110A
(1491763935.191013) can0 188#0000000100000E01
(1491763935.191013) can0 20C#025400000411000F
(1491763935.194753) can0 0D4#00E0004A5D000002
(1491763935.195981) can0 1F4#066400013DF70040
(1491763935.199194) can0 064#FFC000F00E01CC88
(1491763935.200452) can0 0A6#00000B0B00000046
(1491763935.201687) can0 090#02010000000D0088
(1491763935.201688) can0 0C8#000003E500000046
(1491763935.201689) can0 12C#7D73000004111146
(1491763935.202727) can0 188#0000000100000E4D
(1491763935.202728) can0 1C0#0000000000000000
(1491763935.205175) can0 0D4#00E0004A5D00004E
(1491763935.208864) can0 0A6#00000B0B00000082
(1491763935.210116) can0 0C8#000003E000000087
(1491763935.211346) can0 12C#7D7300000409118B
(1491763935.211348) can0 188#0000000100000E89
(1491763935.211348) can0 20C#0254000004090044
(1491763935.212598) can0 224#00EF000E0000E043
(1491763935.215102) can0 0D4#00E0004A5D00008A
(1491763935.218844) can0 0A6#00000B0B000000CE
(1491763935.220082) can0 064#FFC000F00E01CCC4
(1491763935.221350) can0 0C8#000003DC000000C8
(1491763935.221351) can0 090#02010000000D00C4
(1491763935.221352) can0 12C#7D730000040911C7
(1491763935.222563) can0 188#0000000100000EC5
(1491763935.222564) can0 1C0#0000000000000000
(1491763935.225032) can0 0D4#00E0004A5E0000C5
(1491763935.228639) can0 0A6#00000B0B0000000A
(1491763935.229880) can0 0C8#000003D800000008
(1491763935.231117) can0 12C#7D73000004061106
(1491763935.231118) can0 188#0000000100000E01
(1491763935.231119) can0 20C#0254000004060083
(1491763935.234833) can0 0D4#00E0004A5D000002
(1491763935.235920) can0 1F4#066400013DF70080
(1491763935.238415) can0 064#FFC000F00E01CC00
(1491763935.239636) can0 0A6#00000B0B00000046
(1491763935.240875) can0 090#02010000000D0000
(1491763935.240876) can0 0C8#000003D300000049
(1491763935.240876) can0 12C#7D73000004061142
(1491763935.242124) can0 188#0000000100000E4D
(1491763935.242125) can0 1C0#0000000000000000
(1491763935.244152) can0 0D4#00E0004A5D00004E
(1491763935.248945) can0 0A6#00000B0B00000082
(1491763935.250165) can0 0C8#000003D100000087
(1491763935.251414) can0 12C#7D73000004001184
(1491763935.251415) can0 188#0000000100000E89
(1491763935.251416) can0 20C#02540000040000C5
(1491763935.255122) can0 0D4#00E0004A5D00008A
(1491763935.258843) can0 064#FFC000F00E01CC4C
(1491763935.260065) can0 0A6#00000B0B000000CE
(1491763935.261178) can0 090#02010000000D004C
(1491763935.261179) can0 0C8#000003CD000000C8
(1491763935.261179) can0 12C#7D730000040011C0
(1491763935.262346) can0 188#0000000100000EC5
(1491763935.262347) can0 1C0#0000000000000000
(1491763935.264797) can0 0D4#00E0004A5D0000C6
(1491763935.268565) can0 0A6#00000B0B0000000A
(1491763935.269945) can0 0C8#000003CA00000007
(1491763935.271175) can0 12C#7D73000003F81106
(1491763935.271176) can0 188#0000000100000E01
(1491763935.271177) can0 20C#0254000003F8000B
(1491763935.274839) can0 0D4#00E0004A5D000002
(1491763935.276053) can0 1F4#066400013DF700C0
(1491763935.277263) can0 2E4#570000000000008C
(1491763935.278475) can0 064#FFC000F00E01CC88
(1491763935.279729) can0 0A6#00000B0B00000046
(1491763935.280968) can0 090#02020000000D0087
(1491763935.280969) can0 0C8#000003C700000046
(1491763935.280970) can0 12C#7D73000003F81142
(1491763935.282227) can0 188#0000000100000E4D
(1491763935.282229) can0 1C0#0000000000000000
(1491763935.284702) can0 0D4#00E0004A5D00004E
(1491763935.287915) can0 0A6#00000B0B00000082
(1491763935.289191) can0 0C8#000003C300000086
(1491763935.290406) can0 12C#7D73000003F11185
(1491763935.291634) can0 188#0000000100000E89
(1491763935.291636) can0 20C#0254000003F1004E
(1491763935.293934) can0 0D4#00E0004A5D00008A
(1491763935.299064) can0 064#FFC000F00E01CCC4
(1491763935.300285) can0 0A6#00000B0B000000CE
(1491763935.301517) can0 090#02020000000D00C3
(1491763935.301518) can0 0C8#000003BF000000C7
(1491763935.301519) can0 12C#7D73000003F111C1
(1491763935.302769) can0 188#0000000100000EC5
(1491763935.302770) can0 1C0#0000000000000000
(1491763935.305211) can0 0D4#00E0004A5D0000C6
(1491763935.308845) can0 0A6#00000B0B0000000A
(1491763935.310089) can0 0C8#000003BA00000008
(1491763935.311329) can0 12C#7D73000003E91106
(1491763935.311330) can0 188#0000000100000E01
(1491763935.311331) can0 20C#0254000003E90083
(1491763935.312570) can0 224#00EF000E0000E08F
(1491763935.315059) can0 0D4#00E0004A5D000002
(1491763935.316113) can0 1F4#066400013DF70000
(1491763935.318501) can0 064#FFC000F00E01CC00
(1491763935.319618) can0 0A6#00000B0B00000046
(1491763935.320778) can0 090#02030000000D000E
(1491763935.320780) can0 0C8#000003B800000046
(1491763935.320781) can0 12C#7D73000003E91142
(1491763935.321928) can0 188#0000000100000E4D
(1491763935.321929) can0 1C0#0000000000000000
(1491763935.323913) can0 0D4#00E0004A5D00004E
(1491763935.328447) can0 0A6#00000B0B00000082
(1491763935.329621) can0 0C8#000003B400000086
(1491763935.330763) can0 12C#7D73000003E11186
(1491763935.330763) can0 188#0000000100000E89
(1491763935.330763) can0 20C#0254000003E100C7
(1491763935.333941) can0 0D4#00E0004A5D00008A
(1491763935.338513) can0 064#FFC000F00E01CC4C
(1491763935.339636) can0 0A6#00000B0B000000CE
(1491763935.340785) can0 090#02030000000D004A
(1491763935.340785) can0 0C8#000003B0000000C6
(1491763935.340786) can0 12C#7D73000003E111C2
(1491763935.341890) can0 188#0000000100000EC5
(1491763935.341891) can0 1C0#0000000000000000
(1491763935.343909) can0 0D4#00E0004A5D0000C6
(1491763935.348494) can0 0A6#00000B0B0000000A
(1491763935.349821) can0 0C8#000003AC00000007
(1491763935.351059) can0 12C#7D73000003DD1103
(1491763935.351061) can0 188#0000000100000E01
(1491763935.351062) can0 20C#0254000003DD0008
(1491763935.354675) can0 0D4#00E0004A5E000001
(1491763935.355682) can0 1F4#066400013DF70040
(1491763935.357608) can0 064#FFC000F00E01CC88
(1491763935.358715) can0 0A6#00000B0B00000046
(1491763935.359867) can0 090#02030000000D0086
(1491763935.361047) can0 0C8#000003A800000047
(1491763935.361048) can0 12C#7D73000003DD114F
(1491763935.361048) can0 188#0000000100000E4D
(1491763935.362168) can0 1C0#0000000000000000
(1491763935.364457) can0 0D4#00E0004A5D00004E
(1491763935.367752) can0 0A6#00000B0B00000082
(1491763935.368867) can0 0C8#000003A600000085
(1491763935.369803) can0 12C#7D73000003D31185
(1491763935.370947) can0 188#0000000100000E89
(1491763935.370947) can0 20C#0254000003D3004E
(1491763935.374456) can0 0D4#00E0004A5E000089
(1491763935.375532) can0 2E4#57000000000000C8
(1491763935.378818) can0 064#FFC000F00E01CCC4
(1491763935.379896) can0 0A6#00000B0B000000CE
(1491763935.381036) can0 090#02040000000D00C1
(1491763935.381036) can0 0C8#000003A2000000C5
(1491763935.381036) can0 12C#7D73000003D311C1
(1491763935.382174) can0 188#0000000100000EC5
(1491763935.382175) can0 1C0#0000000000000000
(1491763935.384382) can0 0D4#00E0004A5E0000C5
(1491763935.387702) can0 0A6#00000B0B0000000A
(1491763935.388859) can0 0C8#0000039E00000006
(1491763935.390007) can0 12C#7D73000003C91108
(1491763935.391154) can0 188#0000000100000E01
(1491763935.391155) can0 20C#0254000003C90085
(1491763935.395135) can0 0D4#00E0004A5D000002
(1491763935.396306) can0 1F4#066400013DF70080
(1491763935.399394) can0 064#FFC000F00E01CC00
(1491763935.400479) can0 0A6#00000B0B00000046
(1491763935.401506) can0 090#02040000000D000D
(1491763935.401506) can0 0C8#0000039A00000046
(1491763935.401507) can0 12C#7D73000003C91144
(1491763935.402622) can0 188#0000000100000E4D
(1491763935.402622) can0 1C0#0000000000000000
(1491763935.403681) can0 0D4#00E0004A5D00004E
(1491763935.407683) can0 0A6#00000B0B00000082
(1491763935.408779) can0 0C8#0000039800000084
(1491763935.409931) can0 12C#7D73000003C21187
(1491763935.411067) can0 188#0000000100000E89
(1491763935.411067) can0 20C#0254000003C200C8
(1491763935.411068) can0 224#00EF000E0000E0CB
(1491763935.414663) can0 0D4#00E0004A5E000089
(1491763935.418243) can0 064#FFC000F00E01CC4C
(1491763935.419406) can0 0A6#00000B0B000000CE
(1491763935.420604) can0 090#02030000000D004A
(1491763935.420604) can0 0C8#00000393000000C5
(1491763935.421799) can0 12C#7D73000003C211C3
(1491763935.421800) can0 188#0000000100000EC5
(1491763935.421800) can0 1C0#0000000000000000
(1491763935.424038) can0 0D4#00E0004A5D0000C6
(1491763935.428803) can0 0A6#00000B0B0000000A
(1491763935.429975) can0 0C8#0000038E00000007
(1491763935.431170) can0 12C#7D73000003B6110C
(1491763935.431171) can0 188#0000000100000E01
(1491763935.431171) can0 20C#0254000003B60001
(1491763935.434635) can0 0D4#00E0004A5D000002
(1491763935.435786) can0 1F4#066400013DF700C0
(1491763935.438239) can0 064#FFC000F00E01CC88
(1491763935.439403) can0 0A6#00000B0B00000046
(1491763935.440615) can0 090#02030000000D0086
(1491763935.440616) can0 0C8#0000038900000048
(1491763935.441814) can0 12C#7D73000003B61148
(1491763935.441815) can0 188#0000000100000E4D
(1491763935.441815) can0 1C0#0000000000000000
(1491763935.443980) can0 0D4#00E0004A5E00004D
(1491763935.448647) can0 0A6#00000B0B00000082
(1491763935.449928) can0 0C8#0000038600000087
(1491763935.451161) can0 12C#7D73000003A91182
(1491763935.451163) can0 188#0000000100000E89
(1491763935.451163) can0 20C#0254000003A9004B
(1491763935.454867) can0 0D4#00E0004A5E000089
(1491763935.458257) can0 064#FFC000F00E01CCC4
(1491763935.459390) can0 0C8#00000382000000C7
(1491763935.460536) can0 090#02020000000D00C3
(1491763935.460537) can0 0A6#00000B0B000000CE
(1491763935.461681) can0 12C#7D73000003A911CE
(1491763935.461682) can0 188#0000000100000EC5
(1491763935.461682) can0 1C0#0000000000000000
(1491763935.464982) can0 0D4#00E0004A5D0000C6
(1491763935.468356) can0 0A6#00000B0B0000000A
(1491763935.469348) can0 0C8#0000037C0000000A
(1491763935.470464) can0 12C#7D73000003A21101
(1491763935.470464) can0 188#0000000100000E01
(1491763935.471609) can0 20C#0254000003A2008E
(1491763935.473678) can0 0D4#00E0004A5D000002
(1491763935.474813) can0 1F4#066400013DF70000
(1491763935.475908) can0 2E4#5700000000000004
(1491763935.477050) can0 405#010D100000010000
(1491763935.478070) can0 064#FFC000F00E01CC00
(1491763935.479204) can0 0A6#00000B0B00000046
(1491763935.480347) can0 090#02010000000D0000
(1491763935.481501) can0 0C8#0000037A00000048
(1491763935.481501) can0 12C#7D73000003A2114D
(1491763935.481502) can0 188#0000000100000E4D
(1491763935.482641) can0 1C0#0000000000000000
(1491763935.483634) can0 0D4#00E0004A5D00004E
(1491763935.488590) can0 0A6#00000B0B00000082
(1491763935.489847) can0 0C8#000003740000008A
(1491763935.491099) can0 12C#7D73000003A21189
(1491763935.491101) can0 188#0000000100000E89
(1491763935.491101) can0 20C#0254000003A200CA
(1491763935.494814) can0 0D4#00E0004A5D00008A
(1491763935.498590) can0 064#FFC000F00E01CD4B
(1491763935.499872) can0 0A6#00000B0B000000CE
(1491763935.500916) can0 090#02010000000D004C
(1491763935.500917) can0 0C8#0000036E000000CD
(1491763935.500918) can0 12C#7D730000039511C3
(1491763935.502250) can0 188#0000000100000EC5
(1491763935.502251) can0 1C0#0000000000000000
(1491763935.504563) can0 0D4#00E0004A5D0000C6
(1491763935.507945) can0 0A6#00000B0B0000000A
(1491763935.509232) can0 0C8#0000036A0000000D
(1491763935.510483) can0 12C#7D7300000395110F
(1491763935.511702) can0 188#0000000100000E01
(1491763935.511704) can0 20C#0254000003950004
(1491763935.511704) can0 224#00EF00100000E004
(1491763935.513993) can0 0D4#00E0004A5D000002
(1491763935.515324) can0 1F4#066400013DF70040
(1491763935.519014) can0 064#FFC000F00E01CE86
(1491763935.520231) can0 0A6#00000B0B00000046
(1491763935.521460) can0 090#02010000000F0086
(1491763935.521462) can0 0C8#000003640000004F
(1491763935.521462) can0 12C#7D7300000387114A
(1491763935.522693) can0 188#0000000100000E4D
(1491763935.522695) can0 1C0#0000000000000000
(1491763935.525200) can0 0D4#00E0004A5E00004D
(1491763935.528769) can0 0A6#00000B0B00000082
(1491763935.530009) can0 0C8#0000035E00000082
(1491763935.531248) can0 12C#7D73000003871186
(1491763935.531249) can0 188#0000000100000E89
(1491763935.531249) can0 20C#025400000387004F
(1491763935.534969) can0 0D4#00E0004A5E000089
(1491763935.538691) can0 0A6#00000B0B000000CE
(1491763935.539898) can0 0C8#0000035B000000C1
(1491763935.541152) can0 064#FFC00000EE01CFC2
(1491763935.541153) can0 12C#7D730000037C11CE
(1491763935.541153) can0 090#02010000000F00C2
(1491763935.542390) can0 188#0000000100000EC5
(1491763935.542391) can0 1C0#0000000000000000
(1491763935.544887) can0 0D4#00E0004A5E0000C5
(1491763935.548667) can0 0A6#00000B0B0000000A
(1491763935.549904) can0 0C8#0000035500000003
(1491763935.550953) can0 12C#7D730000037C110A
(1491763935.550954) can0 188#0000000100000E01
(1491763935.550954) can0 20C#02540000037C0087
(1491763935.554715) can0 0D4#00E0004A5D000002
(1491763935.555949) can0 1F4#046400013DF70080
(1491763935.557947) can0 0A6#00000B0B00000046
(1491763935.559206) can0 0C8#0000034E00000047
(1491763935.560378) can0 064#FFC00000EE01D00C
(1491763935.561617) can0 12C#7D73000003711141
(1491763935.561618) can0 090#02010000000F000E
(1491763935.561618) can0 188#0000000100000E4D
(1491763935.562721) can0 1C0#0000000000000000
(1491763935.565238) can0 0D4#00E0004A5E00004D
(1491763935.568931) can0 0A6#00000B0B00000082
(1491763935.570165) can0 0C8#0000034A00000087
(1491763935.571466) can0 12C#7D7300000371118D
(1491763935.571468) can0 188#0000000100000E89
(1491763935.571469) can0 20C#02540000037100CE
(1491763935.574727) can0 0D4#00E0004A5D00008A
(1491763935.575786) can0 2E4#5700000000000040
(1491763935.577677) can0 0A6#00000B0B000000CE
(1491763935.578842) can0 0C8#00000343000000CA
(1491763935.579924) can0 064#FFC00000EE01D444
(1491763935.581126) can0 12C#7D730000037111C9
(1491763935.581127) can0 090#02020000000F0049
(1491763935.581127) can0 188#0000000100000EC5
(1491763935.582321) can0 1C0#0000000000000000
(1491763935.584852) can0 0D4#00E0004A5E0000C5
(1491763935.588460) can0 0A6#00000B0B0000000A
(1491763935.589655) can0 0C8#0000033F0000000B
(1491763935.590916) can0 12C#7D73000003671100
(1491763935.590917) can0 188#0000000100000E01
(1491763935.590917) can0 20C#0254000003670005
(1491763935.594635) can0 0D4#00E0004A5E000001
(1491763935.595837) can0 1F4#046400013DF700C0
(1491763935.597894) can0 0A6#00000B0B00000046
(1491763935.599139) can0 0C8#000003390000004D
(1491763935.600337) can0 064#FFC00000EE01D68E
(1491763935.601437) can0 12C#7D7300000367114C
(1491763935.601438) can0 090#02020000000F0085
(1491763935.601439) can0 188#0000000100000E4D
(1491763935.602726) can0 1C0#0000000000000000
(1491763935.605134) can0 0D4#00E0004A5D00004E
(1491763935.608677) can0 0A6#00000B0B00000082
(1491763935.609896) can0 0C8#000003330000008F
(1491763935.611167) can0 12C#7D7300000362118D
(1491763935.611168) can0 188#0000000100000E89
(1491763935.611168) can0 20C#0254000003620046
(1491763935.612343) can0 224#00EF00100000E040
(1491763935.614801) can0 0D4#00E0004A5D00008A
(1491763935.618206) can0 0A6#00000B0B000000CE
(1491763935.619270) can0 0C8#0000032F000000C0
(1491763935.620387) can0 064#FFC00000EE01D8C8
(1491763935.621616) can0 12C#7D730000036211C9
(1491763935.621618) can0 090#02030000000F00C0
(1491763935.621618) can0 188#0000000100000EC5
(1491763935.622854) can0 1C0#0000000000000000
(1491763935.625308) can0 0D4#00E0004A5D0000C6
(1491763935.629019) can0 0A6#00000B0B0000000A
(1491763935.630225) can0 0C8#0000032A00000001
(1491763935.631345) can0 12C#7D730000035A110E
(1491763935.631346) can0 188#0000000100000E01
(1491763935.631346) can0 20C#02540000035A008B
(1491763935.634966) can0 0D4#00E0004A5E000001
(1491763935.636206) can0 1F4#046400013DF70000
(1491763935.638661) can0 0A6#00000B0B00000046
(1491763935.639902) can0 0C8#0000032600000041
(1491763935.641146) can0 064#FFC00000EE01DA02
(1491763935.641150) can0 12C#7D730000035A114A
(1491763935.641150) can0 090#02030000000F000C
(1491763935.642382) can0 188#0000000100000E4D
(1491763935.642383) can0 1C0#0000000000000000
(1491763935.645255) can0 0D4#00E0004A5E00004D
(1491763935.649006) can0 0A6#00000B0B00000082
(1491763935.650206) can0 0C8#0000032000000083
(1491763935.651440) can0 12C#7D730000035A1186
(1491763935.651441) can0 188#0000000100000E89
(1491763935.651441) can0 20C#02540000035A00C7
(1491763935.655111) can0 0D4#00E0004A5E000089
(1491763935.658793) can0 0A6#00000B0B000000CE
(1491763935.660028) can0 0C8#0000031D000000C3
(1491763935.661264) can0 064#FFC00000EE01DB4D
(1491763935.661265) can0 12C#7D730000034F11CE
(1491763935.661265) can0 090#02030000000F0048
(1491763935.662498) can0 188#0000000100000EC5
(1491763935.662500) can0 1C0#0000000000000000
(1491763935.664951) can0 0D4#00E0004A5E0000C5
(1491763935.668462) can0 0A6#00000B0B0000000A
(1491763935.669693) can0 0C8#0000031800000004
(1491763935.670932) can0 12C#7D730000034F110A
(1491763935.670933) can0 188#0000000100000E01
(1491763935.670933) can0 20C#02540000034F000F
(1491763935.674652) can0 0D4#00E0004A5E000001
(1491763935.675855) can0 1F4#046400013DF70040
(1491763935.677132) can0 2E4#570000000000008C
(1491763935.677956) can0 0A6#00000B0B00000046
(1491763935.679229) can0 0C8#0000031500000043
(1491763935.680445) can0 064#FFC00000EE01DB89
(1491763935.681681) can0 12C#7D73000003421143
(1491763935.681683) can0 090#02040000000F0083
(1491763935.681683) can0 188#0000000100000E4D
(1491763935.682948) can0 1C0#0000000000000000
(1491763935.683912) can0 0D4#00E0004A5E00004D
(1491763935.688891) can0 0A6#00000B0B00000082
(1491763935.690100) can0 0C8#0000030F00000086
(1491763935.691303) can0 12C#7D7300000342118F
(1491763935.691304) can0 188#0000000100000E89
(1491763935.691305) can0 20C#0254000003420048
(1491763935.695042) can0 0D4#00E0004A5E000089
(1491763935.698690) can0 0A6#00000B0B000000CE
(1491763935.699923) can0 0C8#0000030C000000C5
(1491763935.701161) can0 064#FFC00000EE01DCC4
(1491763935.701162) can0 12C#7D730000033511C9
(1491763935.701163) can0 090#02030000000F00C0
(1491763935.702107) can0 188#0000000100000EC5
(1491763935.702108) can0 1C0#0000000000000000
(1491763935.704635) can0 0D4#00E0004A5D0000C6
(1491763935.707788) can0 0A6#00000B0B0000000A
(1491763935.709019) can0 0C8#0000030600000007
(1491763935.710262) can0 12C#7D73000003351105
(1491763935.711510) can0 188#0000000100000E01
(1491763935.711512) can0 20C#0254000003350082
(1491763935.711512) can0 224#00EF00100000E08C
(1491763935.715154) can0 0D4#00E0004A5E000001
(1491763935.716325) can0 1F4#046400013DF70080
(1491763935.719041) can0 0A6#00000B0B00000046
(1491763935.720007) can0 0C8#0000030200000047
(1491763935.721175) can0 064#FFC00000EE01DC00
(1491763935.721177) can0 12C#7D73000003351141
(1491763935.721205) can0 090#02030000000F000C
(1491763935.722377) can0 188#0000000100000E4D
(1491763935.722379) can0 1C0#0000000000000000
(1491763935.724837) can0 0D4#00E0004A5D00004E
(1491763935.729035) can0 0A6#00000B0B00000082
(1491763935.730239) can0 0C8#000002FC0000008B
(1491763935.731477) can0 12C#7D730000032A1189
(1491763935.731479) can0 188#0000000100000E89
(1491763935.731479) can0 20C#02540000032A00CA
(1491763935.735192) can0 0D4#00E0004A5E000089
(1491763935.738859) can0 0A6#00000B0B000000CE
(1491763935.740093) can0 0C8#000002F8000000CB
(1491763935.741338) can0 064#FFC00000EE01DC4C
(1491763935.741340) can0 12C#7D730000032A11C5
(1491763935.741340) can0 090#02030000000F0048
(1491763935.742574) can0 188#0000000100000EC5
(1491763935.742576) can0 1C0#0000000000000000
(1491763935.745039) can0 0D4#00E0004A5D0000C6
(1491763935.748500) can0 0A6#00000B0B0000000A
(1491763935.749751) can0 0C8#000002F50000000A
(1491763935.751010) can0 12C#7D73000003291102
(1491763935.751012) can0 188#0000000100000E01
(1491763935.751012) can0 20C#0254000003290007
(1491763935.754653) can0 0D4#00E0004A5E000001
(1491763935.755911) can0 1F4#046400013DF700C0
(1491763935.757937) can0 0A6#00000B0B00000046
(1491763935.759178) can0 0C8#000002EF0000004D
(1491763935.760194) can0 064#FFC00000EE01DC88
(1491763935.761453) can0 12C#7D7300000329114E
(1491763935.761454) can0 090#02020000000F0085
(1491763935.761455) can0 188#0000000100000E4D
(1491763935.762692) can0 1C0#0000000000000000
(1491763935.765171) can0 0D4#00E0004A5E00004D
(1491763935.768887) can0 0C8#000002ED0000008B
(1491763935.770142) can0 0A6#00000B0B00000082
(1491763935.771344) can0 12C#7D7300000329118A
(1491763935.771345) can0 188#0000000100000E89
(1491763935.771346) can0 20C#0254000003290043
(1491763935.775101) can0 0D4#00E0004A5E000089
(1491763935.776301) can0 2E4#57000000000000C8
(1491763935.777540) can0 405#010000000001004A
(1491763935.778779) can0 0A6#00000B0B000000CE
(1491763935.779997) can0 0C8#000002E8000000CC
(1491763935.781246) can0 064#FFC00000EE01DCC4
(1491763935.781247) can0 12C#7D730000032611C9
(1491763935.781248) can0 090#02020000000F00C1
(1491763935.782487) can0 188#0000000100000EC5
(1491763935.782489) can0 1C0#0000000000000000
(1491763935.784947) can0 0D4#00E0004A5E0000C5
(1491763935.788678) can0 0A6#00000B0B0000000A
(1491763935.789887) can0 0C8#000002E60000000A
(1491763935.791140) can0 12C#7D73000003261105
(1491763935.791141) can0 188#0000000100000E01
(1491763935.791141) can0 20C#0254000003260082
(1491763935.794754) can0 0D4#00E0004A5E000001
(1491763935.795985) can0 1F4#046400013DF70000
(1491763935.798454) can0 0A6#00000B0B00000046
(1491763935.799676) can0 0C8#000002E20000004A
(1491763935.800921) can0 064#FFC00000EE01DC00
(1491763935.800922) can0 12C#7D73000003211146
(1491763935.800922) can0 090#02010000000F000E
(1491763935.802157) can0 188#0000000100000E4D
(1491763935.802159) can0 1C0#0000000000000000
(1491763935.804460) can0 0D4#00E0004A5E00004D
(1491763935.807948) can0 0A6#00000B0B00000082
(1491763935.809234) can0 0C8#000002E000000088
(1491763935.810464) can0 12C#7D73000003211182
(1491763935.811720) can0 188#0000000100000E89
(1491763935.811722) can0 20C#02540000032100C3
(1491763935.811722) can0 224#00EF00100000E0C8
(1491763935.814028) can0 0D4#00E0004A5E000089
(1491763935.819109) can0 12C#7D730000032111CE
(1491763935.820305) can0 0A6#00000B0B000000CE
(1491763935.821559) can0 064#FFC00000EE01DB4D
(1491763935.821560) can0 0C8#000002DE000000C7
(1491763935.821561) can0 090#02010000000F004A
(1491763935.822793) can0 188#0000000100000EC5
(1491763935.822794) can0 1C0#0000000000000000
(1491763935.825271) can0 0D4#00E0004A5E0000C5
(1491763935.828969) can0 0A6#00000B0B0000000A
(1491763935.829934) can0 0C8#000002DC00000005
(1491763935.831234) can0 12C#7D730000031F110D
(1491763935.831235) can0 188#0000000100000E01
(1491763935.831235) can0 20C#02540000031F0002
(1491763935.835023) can0 0D4#00E0004A5E000001
(1491763935.836254) can0 1F4#046400013DF70040
(1491763935.838797) can0 0A6#00000B0B00000046
(1491763935.839998) can0 0C8#000002DB00000042
(1491763935.841141) can0 064#FFC00000EE01DB89
(1491763935.841142) can0 12C#7D730000031F1149
(1491763935.841143) can0 090#02010000000F0086
(1491763935.842379) can0 188#0000000100000E4D
(1491763935.842380) can0 1C0#0000000000000000
(1491763935.844845) can0 0D4#00E0004A5D00004E
(1491763935.848570) can0 0A6#00000B0B00000082
(1491763935.849792) can0 0C8#000002D900000080
(1491763935.851032) can0 12C#7D730000031C1188
(1491763935.851033) can0 188#0000000100000E89
(1491763935.851033) can0 20C#02540000031C0041
(1491763935.854817) can0 0D4#00E0004A5E000089
(1491763935.858492) can0 0A6#00000B0B000000CE
(1491763935.859735) can0 0C8#000002D8000000CD
(1491763935.860984) can0 064#FFC00000EE01DBC5
(1491763935.860985) can0 12C#7D730000031C11C4
(1491763935.860986) can0 090#02010000000F00C2
(1491763935.862237) can0 188#0000000100000EC5
(1491763935.862238) can0 1C0#0000000000000000
(1491763935.864215) can0 0D4#00E0004A5E0000C5
(1491763935.869180) can0 0A6#00000B0B0000000A
(1491763935.870412) can0 0C8#000002D800000009
(1491763935.871618) can0 12C#7D730000031C1100
(1491763935.871620) can0 188#0000000100000E01
(1491763935.871620) can0 20C#02540000031C008D
(1491763935.873928) can0 0D4#00E0004A5E000001
(1491763935.875275) can0 1F4#046400013DF70080
(1491763935.876393) can0 2E4#5700000000000004
(1491763935.878947) can0 0A6#00000B0B00000046
(1491763935.880132) can0 0C8#000002D600000047
(1491763935.881359) can0 064#FFC00000EE01DB01
(1491763935.881360) can0 12C#7D7300000319114F
(1491763935.881360) can0 090#02030000000F000C
(1491763935.882597) can0 188#0000000100000E4D
(1491763935.882598) can0 1C0#0000000000000000
(1491763935.885102) can0 0D4#00E0004A5D00004E
(1491763935.888714) can0 0A6#00000B0B00000082
(1491763935.889953) can0 0C8#000002D600000083
(1491763935.891191) can0 12C#7D7300000319118B
(1491763935.891192) can0 188#0000000100000E89
(1491763935.891193) can0 20C#02540000031900CC
(1491763935.894879) can0 0D4#00E0004A5D00008A
(1491763935.898585) can0 0A6#00000B0B000000CE
(1491763935.899797) can0 0C8#000002D4000000C1
(1491763935.901034) can0 064#FFC00000EE01DB4D
(1491763935.901036) can0 12C#7D730000031911C7
(1491763935.901036) can0 090#02030000000F0048
(1491763935.902271) can0 188#0000000100000EC5
(1491763935.902272) can0 1C0#0000000000000000
(1491763935.904778) can0 0D4#00E0004A5E0000C5
(1491763935.907969) can0 0A6#00000B0B0000000A
(1491763935.909221) can0 0C8#000002D40000000D
(1491763935.910486) can0 12C#7D73000003191103
(1491763935.911707) can0 188#0000000100000E01
(1491763935.911708) can0 20C#0254000003190008
(1491763935.911708) can0 224#00EF00120000E002
(1491763935.913999) can0 0D4#00E0004A5E000001
(1491763935.915312) can0 1F4#046400013DF700C0
(1491763935.918948) can0 0A6#00000B0B00000046
(1491763935.919959) can0 0C8#000002D400000049
(1491763935.921121) can0 064#FFC00000EE01DB89
(1491763935.921122) can0 12C#7D7300000319114F
(1491763935.921123) can0 090#02030000000F0084
(1491763935.922211) can0 188#0000000100000E4D
(1491763935.922212) can0 1C0#0000000000000000
(1491763935.924548) can0 0D4#00E0004A5E00004D
(1491763935.927715) can0 0A6#00000B0B00000082
(1491763935.928850) can0 0C8#000002D400000085
(1491763935.929990) can0 12C#7D7300000317118D
(1491763935.931133) can0 188#0000000100000E89
(1491763935.931135) can0 20C#0254000003170046
(1491763935.934576) can0 0D4#00E0004A5E000089
(1491763935.937687) can0 0A6#00000B0B000000CE
(1491763935.938813) can0 0C8#000002D4000000C1
(1491763935.939950) can0 064#FFC00000EE01DBC5
(1491763935.941094) can0 12C#7D730000031711C9
(1491763935.941094) can0 090#02030000000F00C0
(1491763935.941095) can0 188#0000000100000EC5
(1491763935.942239) can0 1C0#0000000000000000
(1491763935.944521) can0 0D4#00E0004A5D0000C6
(1491763935.947772) can0 0A6#00000B0B0000000A
(1491763935.948935) can0 0C8#000002D40000000D
(1491763935.950101) can0 12C#7D73000003171105
(1491763935.951258) can0 188#0000000100000E01
(1491763935.951259) can0 20C#0254000003170082
(1491763935.954821) can0 0D4#00E0004A5E000001
(1491763935.956096) can0 1F4#046400013DF70000
(1491763935.958497) can0 0A6#00000B0B00000046
(1491763935.959751) can0 0C8#000002D400000049
(1491763935.960838) can0 064#FFC00000EE01DB01
(1491763935.960839) can0 12C#7D73000003141144
(1491763935.960839) can0 090#02030000000F000C
(1491763935.961954) can0 188#0000000100000E4D
(1491763935.961955) can0 1C0#0000000000000000
(1491763935.963901) can0 0D4#00E0004A5D00004E
(1491763935.968446) can0 0C8#000002D400000085
(1491763935.969582) can0 0A6#00000B0B00000082
(1491763935.970702) can0 12C#7D73000003141180
(1491763935.970702) can0 188#0000000100000E89
(1491763935.970703) can0 20C#02540000031400C1
(1491763935.973770) can0 0D4#00E0004A5E000089
(1491763935.974855) can0 2E4#5700000000000040
(1491763935.978343) can0 0A6#00000B0B000000CE
(1491763935.979456) can0 0C8#000002D3000000C2
(1491763935.980500) can0 064#FFC00000EE01DA4E
(1491763935.980500) can0 12C#7D730000031511CB
(1491763935.981631) can0 090#02030000000F0048
(1491763935.981631) can0 188#0000000100000EC5
(1491763935.981631) can0 1C0#0000000000000000
(1491763935.983740) can0 0D4#00E0004A5D0000C6
(1491763935.988365) can0 0A6#00000B0B0000000A
(1491763935.989566) can0 0C8#000002D30000000E
(1491763935.990718) can0 12C#7D73000003151107
(1491763935.990719) can0 188#0000000100000E01
(1491763935.991811) can0 20C#025400000315000C
(1491763935.993736) can0 0D4#00E0004A5D000002
(1491763935.994881) can0 1F4#046400013DF70040
(1491763935.998240) can0 0A6#00000B0B00000046
(1491763935.999419) can0 0C8#000002D30000004A
(1491763936.000590) can0 064#FFC00000EE01DA8A
(1491763936.000591) can0 12C#7D73000003151143
(1491763936.002481) can0 090#02030000000F0084
(1491763936.002482) can0 188#0000000100000E4D
(1491763936.002482) can0 1C0#0000000000000000
(1491763936.004910) can0 0D4#00E0004A5D00004E
(1491763936.008508) can0 0A6#00000B0B00000082
(1491763936.009686) can0 0C8#000002D300000086
(1491763936.010855) can0 12C#7D73000003141180
(1491763936.010856) can0 188#0000000100000E89
(1491763936.010856) can0 20C#0254000003140049
(1491763936.012036) can0 224#00EF00120000E04E
(1491763936.014407) can0 0D4#00E0004A5E000089
(1491763936.018795) can0 0A6#00000B0B000000CE
(1491763936.020055) can0 0C8#000002D3000000C2
(1491763936.021155) can0 064#FFC00000EE01DAC6
(1491763936.021156) can0 12C#7D730000031411CC
(1491763936.021156) can0 090#02030000000F00C0
(1491763936.022248) can0 188#0000000100000EC5
(1491763936.022248) can0 1C0#0000000000000000
(1491763936.024368) can0 0D4#00E0004A5D0000C6
(1491763936.029091) can0 0A6#00000B0B0000000A
(1491763936.030246) can0 0C8#000002D30000000E
(1491763936.031481) can0 12C#7D73000003141108
(1491763936.031485) can0 188#0000000100000E01
